(1676756310.110160) vcan0 744#F44F134DC771
(1676756310.523843) vcan0 786#F82C
(1676756310.727299) vcan0 053#396B9103484A3F4B
(1676756310.948757) vcan0 670#5CC7
(1676756311.327768) vcan0 58B#A49E882F5A76
(1676756311.583295) vcan0 2D7#35B56B0A7F5691
(1676756311.789712) vcan0 07F#0022831C53F6523B
(1676756311.989976) vcan0 5AA#F427DB35EFBCE9
(1676756312.194020) vcan0 5CD#B62E5304535D463B
(1676756312.394665) vcan0 25B#4A2A601DAE5A8568
(1676756312.594831) vcan0 71D#F7A4C4
(1676756312.796569) vcan0 565#702954
(1676756313.003288) vcan0 6EA#4B81C07E
(1676756313.204017) vcan0 27C#
(1676756313.404308) vcan0 45F#4E
(1676756313.604397) vcan0 3A8#F94EB7
(1676756313.804488) vcan0 12C#C876592687EB8D16
(1676756314.022884) vcan0 15D#3646
(1676756314.228506) vcan0 695#08D6AC5CFAFB2C7D
(1676756314.477040) vcan0 780#EA0662656A7EAC76
(1676756314.707242) vcan0 78D#2CB0CE2309
(1676756314.966448) vcan0 6B6#0405486315631473
(1676756315.169673) vcan0 2AD#1FF5E1
(1676756315.372225) vcan0 796#CA5F9545C2A8B47B
(1676756315.573561) vcan0 1C7#4994
(1676756315.777191) vcan0 7A4#A05B5C0639AE5314
(1676756315.988342) vcan0 5AC#33AA80112D1DA302
(1676756316.193840) vcan0 121#979B4F79AFF8E721
(1676756316.397234) vcan0 153#B8AA95
(1676756316.598865) vcan0 430#1F5B683BDD665912
(1676756316.800636) vcan0 610#33ADDB6CA6BD103C
(1676756317.003622) vcan0 457#6866C5371E56877C
(1676756317.203811) vcan0 390#43
(1676756317.403955) vcan0 531#6E095C
(1676756317.604211) vcan0 68C#0A
(1676756317.810714) vcan0 4BF#5CA8
(1676756318.100084) vcan0 765#1C96180E95
(1676756318.302006) vcan0 2D2#738A9611E200BF3E
(1676756318.532237) vcan0 17A#88BECF7AD1D5
(1676756318.739571) vcan0 4A3#
(1676756319.436399) vcan0 7A1#68834B
(1676756319.859347) vcan0 216#B08F8677A2E8
(1676756320.060669) vcan0 077#5098EB0737A5435E
(1676756320.266289) vcan0 35C#4A430824C23AD06D
(1676756320.621891) vcan0 3C1#575E0D6D9396
(1676756321.250707) vcan0 2A2#75975D0F1C0C6D47
(1676756321.511651) vcan0 070#EDE11B7F1465F92D
(1676756321.888976) vcan0 2ED#478D3C7D8F9A5F39
(1676756322.238830) vcan0 30F#618F5A112695BD38
(1676756322.494727) vcan0 585#C8
(1676756322.696364) vcan0 6CC#3483F76B2802CA57
(1676756322.907654) vcan0 6C5#EA3C9A4586EA5A0B
(1676756323.111621) vcan0 7E4#1A81
(1676756323.314462) vcan0 40C#A2762F057DA4612E
(1676756323.516234) vcan0 68D#91095B5C7AE94632
(1676756323.721150) vcan0 66C#0984A66B7B91067C
(1676756323.924347) vcan0 788#A126C4340D454F0E
(1676756324.127134) vcan0 27C#0A23031C48997828
(1676756324.330587) vcan0 282#719B42004711C915
(1676756324.534930) vcan0 4BC#CEFB2321A10C1B5A
(1676756324.741802) vcan0 39D#2777DD17AAF7CF29
(1676756324.944981) vcan0 577#279C31580404F95D
(1676756325.145133) vcan0 659#7FED3F10C5ACF558
(1676756325.345425) vcan0 490#413EFC5418E44302
(1676756325.553999) vcan0 4F3#2629
(1676756325.761981) vcan0 14C#
(1676756325.962321) vcan0 26F#16D5066B2B5F8B4C
(1676756326.164795) vcan0 485#CC6BA626
(1676756326.370156) vcan0 5CC#CC2FB60F
(1676756326.570823) vcan0 0BE#48E7B5
(1676756326.778899) vcan0 1AB#DDC3DE553CAE98
(1676756326.984420) vcan0 650#5492DC2C43CBC354
(1676756327.191029) vcan0 700#B3828D534D707866
(1676756327.393294) vcan0 7AB#1C34B63B1AFA961E
(1676756327.597948) vcan0 795#4559
(1676756327.800750) vcan0 217#3DBC
(1676756328.085715) vcan0 006#270BED2DC478DD2B
(1676756328.613173) vcan0 7FD#
(1676756328.819577) vcan0 737#E4D74734870D7539
(1676756329.094853) vcan0 5D6#CBD8380ED7BC1B5E
(1676756329.295016) vcan0 5B3#242D94445E2D9A08
(1676756329.495456) vcan0 6EA#
(1676756329.695989) vcan0 272#9A72A10E8944EF59
(1676756329.896818) vcan0 5D0#6D6C1F16D6ED68
(1676756330.097066) vcan0 2E1#9A664620
(1676756330.297232) vcan0 204#86FC7A003C
(1676756330.504523) vcan0 22E#C33EBD5804A03271
(1676756330.739579) vcan0 6A4#DB5C4E4F57647B34
(1676756330.982329) vcan0 30D#B691153DF7A15225
(1676756331.185681) vcan0 33F#77903D24B255343B
(1676756331.455487) vcan0 1EC#3B9A
(1676756331.662487) vcan0 1E9#926D1F0FCA4CAE40
(1676756331.862705) vcan0 63D#A81F7A3741E8FE30
(1676756332.281363) vcan0 2A2#7D194750D0142540
(1676756332.481757) vcan0 09A#D4
(1676756332.681817) vcan0 7CF#
(1676756332.892656) vcan0 3AF#D484097EEF86B528
(1676756333.093690) vcan0 67A#A1DCE9636618114F
(1676756333.295131) vcan0 05D#2398C769474A430C
(1676756333.499779) vcan0 585#1197F14CC2
(1676756333.700270) vcan0 1E2#03E49E4484A4BF20
(1676756333.900922) vcan0 2E9#54
(1676756334.108440) vcan0 5C2#C1F2B72B91C5E44D
(1676756334.310756) vcan0 7D8#6EA89B26881B
(1676756334.514356) vcan0 3A2#77A2
