4410.000868 1     18FFFA13x        Rx    d 8 00 14 FF 3F FF FF FF FF
4410.001156 1     18FFFF13x        Rx    d 8 76 51 04 2B 42 FF 04 FF
4410.001874 2     18FFFFF0x        Rx    d 8 76 51 04 2B 42 FF 04 FF
4410.002974 1     0CFFFE8Cx        Rx    d 8 63 FF FF FC FF FF FF FF
4410.003274 1     0CFFFF8Cx        Rx    d 8 99 FF FF FF FF FF FF FF
4410.003576 1     0CFFF88Cx        Rx    d 8 92 FF FF FF FF FF FF FF
4410.005401 1     0CFFFE03x        Rx    d 8 8E 84 9F 40 50 1D 7F E5
4410.006747 1     0CF00400x        Rx    d 8 F1 FF A2 F2 41 FF FF FF
4410.007031 1     18F02300x        Rx    d 8 58 0D F2 FF FF 72 FF FF
4410.007321 1     18F00128x        Rx    d 8 FF FF FF CF FF FF FF FF
4410.011877 1     18EFFF22x        Rx    d 8 F0 09 FF FF 0F FF FF FF
4410.011995 2     0CEFFFC5x        Rx    d 8 F8 01 01 64 04 00 00 18
4410.012158 1     0CFE1122x        Rx    d 8 D4 26 F1 3F FF FF FF FF
4410.012456 1     0CFE1422x        Rx    d 8 5A A0 F2 3F FF FF FF FF
4410.012715 2     0CF004F0x        Rx    d 8 F1 FF A2 F2 41 FF FF FF
4410.012752 1     0CFE1522x        Rx    d 8 5C 9E F2 3F FF FF FF FF
4410.013034 1     18FFF837x        Rx    d 8 30 6E 6D 57 14 00 7F 1F
4410.013299 2     18FFFAF0x        Rx    d 8 02 40 00 40 40 3F FF FF
4410.013867 2     0CFE11F0x        Rx    d 8 D4 26 F1 3F FF FF FF FF
4410.013946 1     18FEF719x        Rx    d 8 FF FF FF FF FF FF 08 01
4410.014263 1     18FFFE19x        Rx    d 8 05 F5 FF FF FF FF FF FF
4410.014443 2     0CFFFFF0x        Rx    d 8 55 7D 7D 7D 7D 7D FF FF
4410.014537 1     04EF0006x        Rx    d 8 64 15 12 F0 5D 23 D8 21
4410.014831 1     18FFF819x        Rx    d 8 03 FF FF FF FF FF FF FF
4410.015000 2     0CFFFB1Ex        Rx    d 8 00 3F 11 68 04 88 F0 FF
4410.015123 1     18FFFB06x        Rx    d 8 00 05 A1 C8 FF FF FF FF
4410.015405 1     0CFFFF31x        Rx    d 8 5E 0D FC 3F FF 4F F0 FF
4410.015596 2     18001E1Ex        Rx    d 8 00 40 00 00 00 00 00 00
4410.015690 1     08FE6E47x        Rx    d 8 FF FF FF FF 5E 08 FF FF
4410.015968 1     0CFFFE05x        Rx    d 8 8B 84 FF F1 B0 04 41 3C
4410.016176 2     18E726CCx        Rx    d 8 FF 00 03 FF FF FF FF FF
4410.016254 1     18FEF731x        Rx    d 8 FF FF FF FF 00 00 0D 01
4410.016546 1     0CEFFF05x        Rx    d 8 6E FF FF 00 FF FF FF FF
4410.016756 2     1CE726EDx        Rx    d 8 FF FF FF FF FF FF FF FF
4410.016838 1     0CF00300x        Rx    d 8 FF FE 2E FF FF FF FF FF
4410.017128 1     0CEFFF00x        Rx    d 8 64 06 76 7F FF FF FF FF
4410.017413 1     0CF00400x        Rx    d 8 F1 FF A2 CE 41 FF FF FF
4410.017691 1     18EFFF00x        Rx    d 8 64 10 0F 0F 46 28 4F 3E
4410.017975 1     18FFF347x        Rx    d 8 23 3D 69 FF FF FF FF FF
4410.018188 2     18FFFBF0x        Rx    d 8 00 05 A1 C8 FF FF FF FF
4410.018269 1     18FFF819x        Rx    d 8 04 FF FF FF FF FF FF FF
4410.018553 1     18FEF147x        Rx    d 8 FF 5E 08 FF FF FF FF FF
4410.018848 1     18FFF819x        Rx    d 8 06 FF FF FF FF FF FF FF
4410.019142 1     18FFFE05x        Rx    d 8 10 FF FF FF FF FF FF FF
4410.019440 1     18FFF819x        Rx    d 8 07 FF FF FF FF FF FF FF
4410.019738 1     18FFF805x        Rx    d 8 20 FF FF FF FF FF FF FF
4410.022473 2     0CFE14F0x        Rx    d 8 5A A0 F2 3F FF FF FF FF
4410.022960 1     0CFFFF8Cx        Rx    d 8 55 7D 7D 7D 7D 7D FF FF
4410.023041 2     0CFE15F0x        Rx    d 8 5C 9E F2 3F FF FF FF FF
4410.023261 1     0CFFFF8Cx        Rx    d 8 97 FF FF FF FF FF FF FF
4410.024809 1     0DEF0603x        Rx    d 8 01 01 FF FF FF FF FF F5
4410.025301 1     18FEF803x        Rx    d 8 FF FF FF 7A E0 29 FF FF
4410.025583 1     0CFFFE03x        Rx    d 8 8E 84 9F 40 60 1D 7F E4
4410.025761 2     0CFFFA23x        Rx    d 8 00 07 AB FF FF FF FF FF
4410.025873 1     18EFFF07x        Rx    d 8 F0 0D FF FF FF FF FF FF
4410.026334 2     18FEF8F0x        Rx    d 8 FF FF FF 7A E0 29 FF FF
4410.026775 1     0CF00400x        Rx    d 8 F1 FF A2 EA 41 FF FF FF
4410.030902 1     0CACFF13x        Rx    d 8 5D 7D 10 FF FF FF FF FF
4410.031188 1     18FFFA13x        Rx    d 8 02 62 FF FF FF FF 01 04
4410.031962 2     18FFFAF0x        Rx    d 8 02 62 FF FF FF FF 01 04
4410.032336 1     0CFFFAF0x        Rx    d 8 00 07 AB FF FF FF FF FF
4410.032662 2     0CACFFF0x        Rx    d 8 5D 7D 10 FF FF FF FF FF
4410.033238 2     0CFE49F0x        Rx    d 8 1F 09 5F 32 84 01 FF FF
4410.034478 1     04EF0006x        Rx    d 8 64 15 13 F0 A0 23 D8 21
4410.035024 1     18F00106x        Rx    d 8 FF FF FF FF 00 FF FF FF
4410.035308 1     08FE6E47x        Rx    d 8 FF FF FF FF 5E 08 FF FF
4410.035403 2     0CFFFA23x        Rx    d 8 00 06 B3 FF FF FF FF FF
4410.035587 1     0CFFFE05x        Rx    d 8 8B 84 FF F1 B0 04 41 3D
4410.035877 1     18F00503x        Rx    d 8 84 FF FF FF FF FF FF FF
4410.036169 1     0CEFFF05x        Rx    d 8 6E FF FF 00 FF FF FF FF
4410.036753 1     0CF00300x        Rx    d 8 FF FE 2E FF FF FF FF FF
4410.037043 1     0CEFFF00x        Rx    d 8 64 06 6B 7F FF FF FF FF
4410.037327 1     0CF00400x        Rx    d 8 F1 FF A2 CC 41 FF FF FF
4410.037616 1     18FEEE00x        Rx    d 8 7E 84 FF FF FF FF FF FF
4410.038280 1     1CE72631x        Rx    d 8 A8 EA 03 FF 00 00 00 00
4410.038307 2     18FEEEF0x        Rx    d 8 7E 84 FF FF FF FF FF FF
4410.040798 1     1CE63126x        Rx    d 8 A8 EA 03 00 00 00 00 00
4410.042344 1     0CFFFAF0x        Rx    d 8 00 06 B3 FF FF FF FF FF
4410.042972 1     0CFFFF8Cx        Rx    d 8 99 FF FF FF FF FF FF FF
4410.043260 1     18EFFF8Cx        Rx    d 8 F0 0C FF FF 88 8F FF FF
4410.043555 1     0CFFF88Cx        Rx    d 8 92 FF FF FF FF FF FF FF
4410.043827 1     18EFFF8Bx        Rx    d 8 F0 0E 88 88 88 88 88 88
4410.044111 1     18EFFF8Bx        Rx    d 8 F4 31 88 88 81 51 78 FF
4410.045337 1     0CFFFE03x        Rx    d 8 8E 84 9F 40 50 1D 7F E5
4410.046921 1     0CF00400x        Rx    d 8 F1 FF A2 E8 41 FF FF FF
4410.051553 1     0CFE4523x        Rx    d 8 0C 4F 78 FF FF FF FF FF
4410.051853 1     0CFE1222x        Rx    d 8 7D 7D F0 3F FF FF FF FF
4410.052154 1     0CFE1322x        Rx    d 8 7D 7D F0 3F FF FF FF FF
4410.052768 2     0CFE45F0x        Rx    d 8 0C 4F 78 FF FF FF FF FF
4410.052894 1     18EFFF37x        Rx    d 8 F0 09 FF FF FF 00 F0 FF
4410.053348 2     0CFE12F0x        Rx    d 8 7D 7D F0 3F FF FF FF FF
4410.053940 2     0CFE13F0x        Rx    d 8 7D 7D F0 3F FF FF FF FF
4410.054516 1     04EF0006x        Rx    d 8 64 15 14 F0 A0 23 D8 21
4410.054520 2     0CFFFFF0x        Rx    d 8 55 7D 7D 7D 7D 7D FF FF
4410.055117 2     18001E1Ex        Rx    d 8 00 40 00 00 00 00 00 00
4410.055148 1     08FE6E47x        Rx    d 8 FF FF FF FF 5E 08 FF FF
4410.055430 1     0CFFFF31x        Rx    d 8 5E 0D FC 3F FF 4F F0 FF
4410.055673 2     0CFE48F0x        Rx    d 8 14 09 83 3C 84 01 05 F5
4410.055742 1     0CFE0A05x        Rx    d 8 FF FF FF FF FF FF FF FF
4410.056040 1     0CF02205x        Rx    d 8 10 09 FF FF FF FF FF 21
4410.056331 1     0DEF0607x        Rx    d 8 01 31 B0 43 FF FF FF F0
4410.056609 1     0CFFFE05x        Rx    d 8 8B 84 FF F1 B0 04 41 3C
4410.056919 1     0CEFFF05x        Rx    d 8 6E FF FF 00 FF FF FF FF
4410.057211 1     0CF00300x        Rx    d 8 FF FE 2E FF FF FF FF FF
4410.057497 1     0CEFFF00x        Rx    d 8 64 06 72 7F FF FF FF FF
4410.057781 1     0CF00400x        Rx    d 8 F1 FF A2 D8 41 FF FF FF
4410.058064 1     18F02300x        Rx    d 8 58 0D F2 FF FF 71 FF FF
4410.058844 1     1CE726FBx        Rx    d 8 FF FF FF FF FF FF FF FF
4410.059720 1     1CE726C6x        Rx    d 8 FF FF FF FF FF FF FF FF
4410.062717 2     0CFE0AF0x        Rx    d 8 FF FF FF FF FF FF FF FF
4410.062954 1     0CFFFE8Cx        Rx    d 8 8D FB FB 7D C0 FF FF FF
4410.063244 1     0CFFFE8Cx        Rx    d 8 8C FF 22 FB FB F0 FF 1F
4410.063290 2     0CF022F0x        Rx    d 8 10 09 FF FF FF FF FF 21
4410.063540 1     0CFFFF8Cx        Rx    d 8 55 7D 7D 7D 7D 7D FF FF
4410.063841 1     0CFFFF8Cx        Rx    d 8 97 FF FF FF FF FF FF FF
4410.064541 1     0CFFFEC6x        Rx    d 8 EA C3 09 FF FF 00 FF FF
4410.065285 1     18EFFF47x        Rx    d 8 F0 09 FF FF FF FF FF 00
4410.065567 1     0CFFFE03x        Rx    d 8 8E 84 9F 40 60 1D 7F E4
4410.067089 1     0CF00400x        Rx    d 8 F1 FF A2 D8 41 FF FF FF
4410.067379 1     18FEDF00x        Rx    d 8 89 E8 41 FF FF FF FF 05
4410.072788 1     18FFFAF0x        Rx    d 8 02 40 00 40 40 3F FF FF
4410.072838 2     0CFFFFF0x        Rx    d 8 5E FD FF FF FF FF FF F7
4410.074612 1     04EF0006x        Rx    d 8 64 15 15 F0 6C 23 D8 21
4410.075158 1     0CFFFE06x        Rx    d 8 5C B0 43 B0 43 FF FF FF
4410.075442 1     08FE6E47x        Rx    d 8 FF FF FF FF 5E 08 FF FF
4410.075734 1     0CFE4831x        Rx    d 8 FF FF FF FF FF FF FF F7
4410.076022 1     18EFFF05x        Rx    d 8 F0 0D FF FF F0 0F FF FF
4410.076301 1     0CFFFE05x        Rx    d 8 8B 84 FF F1 B0 04 41 3D
4410.076593 1     18FFFA47x        Rx    d 8 02 49 FF FF FF FF FF FF
4410.076885 1     0CEFFF05x        Rx    d 8 6E FF FF 00 FF FF FF FF
4410.077173 1     0CEFFF00x        Rx    d 8 64 06 77 7F FF FF FF FF
4410.077463 1     0CF00300x        Rx    d 8 FF FE 2F FF FF FF FF FF
4410.077748 1     0CF00400x        Rx    d 8 F1 FF A2 CC 41 FF FF FF
4410.078038 1     18FEF200x        Rx    d 8 5A 03 FF FF FF FF FF FF
4410.078332 1     18FFFA07x        Rx    d 8 00 0F FF FF 13 F1 FF FF
4410.078614 1     18FFFE05x        Rx    d 8 6F 00 00 84 CF 2F FF 10
4410.078759 2     18FEF2F0x        Rx    d 8 5A 03 FF FF FF FF FF FF
4410.082918 1     0CFFFF8Cx        Rx    d 8 4D FF FF FA FD FF FF FF
4410.083218 1     0CFFFF8Cx        Rx    d 8 99 FF FF FF FF FF FF FF
4410.083520 1     0CFFF88Cx        Rx    d 8 92 FF FF FF FF FF FF FF
4410.084395 2     0CCBC5F7x        Rx    d 8 03 00 A1 00 00 00 40 FF
4410.085248 1     1CFDDF47x        Rx    d 8 FF FF FF FF FF FF FF FF
4410.085538 1     0CFE4947x        Rx    d 8 1F 09 FF FF FF FF FF FF
4410.085833 1     0CFFFE03x        Rx    d 8 8E 84 9F 40 60 1D 7F E5
4410.086131 1     0CFE4307x        Rx    d 8 D0 22 FF FF 51 F3 FF FF
4410.086901 1     0CF00400x        Rx    d 8 F1 FF A3 D6 41 FF FF FF
4410.088545 1     18F00128x        Rx    d 8 FF FF FF CF FF FF FF FF
4410.091929 1     0CFE1122x        Rx    d 8 D4 26 F1 3F FF FF FF FF
4410.092213 1     18FFFA22x        Rx    d 8 02 42 FA 7D 40 7D FF C0
4410.092497 1     0CFE1522x        Rx    d 8 5F 9B F2 3F FF FF FF FF
4410.092759 2     0CFE43F0x        Rx    d 8 D0 22 FF FF 51 F3 FF FF
4410.092786 1     18FFFA22x        Rx    d 8 02 43 FA 7D 40 7D FF C0
4410.093078 1     0CFFFF22x        Rx    d 8 59 FF FF FF FF FF FF FF
4410.093327 2     0CFE11F0x        Rx    d 8 D4 26 F1 3F FF FF FF FF
4410.093366 1     18EFFFF0x        Rx    d 8 F0 09 FF FF F0 FF FF FF
4410.093904 2     0CFFFFF0x        Rx    d 8 55 7D 7D 7D 7D 7D FF FF
4410.094006 1     18FE4719x        Rx    d 8 7F FF FF FF FF FF FF FF
4410.094322 1     18FFF819x        Rx    d 8 04 FF FF FF FF FF FF FF
4410.094599 1     04EF0006x        Rx    d 8 64 15 16 F0 A0 23 D8 21
4410.094724 2     18001E1Ex        Rx    d 8 00 40 00 00 00 00 00 00
4410.094883 1     18FFF819x        Rx    d 8 05 1A 16 34 00 00 00 00
4410.095169 1     18FE4032x        Rx    d 8 FF 0F 00 3F FF FF FF FF
4410.095453 1     08FE6E47x        Rx    d 8 FF FF FF FF 5E 08 FF FF
4410.095739 1     0CFFFE91x        Rx    d 8 83 FD FF FF CC FF FF FF
4410.096025 1     18EFFF06x        Rx    d 8 F0 0D FF FF 0F FF FF FF
4410.096310 1     0CFFFF31x        Rx    d 8 5C F1 FF 00 00 00 FF FC
4410.096596 1     18F00647x        Rx    d 8 FF CC FF FF FF FF FF FF
4410.096886 1     0CF00300x        Rx    d 8 FF FE 2F FF FF FF FF FF
4410.097170 1     0CF00400x        Rx    d 8 F1 FF A3 D8 41 FF FF FF
4410.097458 1     0CEFFF00x        Rx    d 8 64 06 84 7F FF FF FF FF
4410.097741 1     0CFFFF31x        Rx    d 8 5E 0D FC 3F FF 4F F0 FF
4410.098027 1     18EF0600x        Rx    d 8 64 0E 16 00 FF FF FF FF
4410.098305 1     0CFFFE05x        Rx    d 8 8B 84 FF F1 B0 04 41 3C
4410.098599 1     18FFF819x        Rx    d 8 06 FF FF FF FF FF FF FF
4410.098891 1     0CEFFF05x        Rx    d 8 6E FF FF 00 FF FF FF FF
4410.099190 1     18FFF819x        Rx    d 8 07 FF FF FF FF FF FF FF
4410.099508 1     18FFF819x        Rx    d 8 08 FF FF FF FF FF FF FF
4410.102476 2     0CFE15F0x        Rx    d 8 5F 9B F2 3F FF FF FF FF
4410.103018 1     0CFFFE8Cx        Rx    d 8 63 FF FF FC FF FF FF FF
4410.103312 1     0CFFFF8Cx        Rx    d 8 55 7D 7D 7D 7D 7D FF FF
4410.103612 1     0CFFFF8Cx        Rx    d 8 97 FF FF FF FF FF FF FF
4410.105456 1     0CFFFE03x        Rx    d 8 8E 84 9F 40 60 1D 7F E4
4410.106993 1     0CF00400x        Rx    d 8 F1 FF A3 DA 41 FF FF FF
4410.107275 1     18F02300x        Rx    d 8 54 0D F2 FF FF 70 FF FF
4410.109076 2     0CFEF31Cx        Rx    d 8 E8 CF 31 96 09 B3 52 45
4410.109524 2     14EF801Cx        Rx    d 5 3F 11 E4 E3 64 FF FF FF
4410.110081 2     0CFEE61Cx        Rx    d 8 B7 00 16 05 24 20 FF F9
4410.110713 2     0CFEE81Cx        Rx    d 8 64 5A 55 08 BC 63 01 58
4410.111313 2     0CFFFF1Cx        Rx    d 8 51 03 02 12 0B 07 08 01
4410.111885 2     0CFFFF1Cx        Rx    d 8 52 25 14 A5 28 94 74 2F
4410.112473 2     0CFFFF1Cx        Rx    d 8 53 01 90 7A 04 55 41 54
4410.112479 1     0CFEE8F0x        Rx    d 8 64 5A 55 08 BC 63 01 58
4410.113037 2     0CF004F0x        Rx    d 8 F1 FF A3 DA 41 FF FF FF
4410.113622 2     0CFFFF1Cx        Rx    d 8 A0 04 FF FF FF FF FF FF
4410.114206 2     18FFFAF0x        Rx    d 8 02 40 00 40 40 3F FF FF
4410.114524 1     04EF0006x        Rx    d 8 64 15 17 F0 6C 23 D8 21
4410.114754 2     0CFFFF1Cx        Rx    d 8 54 2F 01 0A A2 EA 7D 4D
4410.115106 1     18FFFB06x        Rx    d 8 00 05 A2 C8 FF FF FF FF
4410.115358 2     0CFFFF1Cx        Rx    d 8 E3 FF FF FF FC 01 FF F1
4410.115384 1     0CFFFE05x        Rx    d 8 8B 84 FF F1 B0 04 41 3D
4410.115668 1     08FE6E47x        Rx    d 8 FF FF FF FF 5E 08 FF FF
4410.115938 2     18FFFBF0x        Rx    d 8 00 05 A2 C8 FF FF FF FF
4410.115960 1     0CEFFF05x        Rx    d 8 6E FF FF 00 FF FF FF FF
4410.116244 1     18FFF347x        Rx    d 8 23 3D 69 FF FF FF FF FF
4410.116494 2     0CFFFF1Cx        Rx    d 8 E1 DF 02 64 E3 64 46 00
4410.116538 1     18FFFE05x        Rx    d 8 10 FF FF FF FF FF FF FF
4410.116822 1     18FEF147x        Rx    d 8 FF 5E 08 FF FF FF FF FF
4410.117112 1     0CF00300x        Rx    d 8 FF FE 2F FF FF FF FF FF
4410.117401 1     0CEFFF00x        Rx    d 8 64 06 84 7F FF FF FF FF
4410.117685 1     0CF00400x        Rx    d 8 F1 FF A3 D8 41 FF FF FF
4410.117963 1     18EFFF00x        Rx    d 8 64 10 0F 0F 42 28 4F 3E
4410.118250 1     18FEF700x        Rx    d 8 FF FF FF FF 10 01 13 01
4410.118548 1     18FFF805x        Rx    d 8 20 FF FF FF FF FF FF FF
4410.118850 1     1CE72631x        Rx    d 8 A8 EA 03 FF 00 00 00 00
4410.118894 2     18FEF7F0x        Rx    d 8 FF FF FF FF 10 01 13 01
4410.119148 1     1CE72606x        Rx    d 8 A8 11 04 FF 25 00 00 00
4410.122384 1     0CFFFFF0x        Rx    d 8 E1 DF 02 64 E3 64 46 00
4410.122930 1     0CFFFE8Cx        Rx    d 8 63 FF FF FD FF FF FF FF
4410.123231 1     0CFFFF8Cx        Rx    d 8 99 FF FF FF FF FF FF FF
4410.123533 1     0CFFF88Cx        Rx    d 8 92 FF FF FF FF FF FF FF
4410.124735 1     1CE63126x        Rx    d 8 A8 EA 03 00 00 00 00 00
4410.125221 1     18FEF803x        Rx    d 8 FF FF FF 7A E0 29 FF FF
4410.125427 2     0CFFFA23x        Rx    d 8 00 07 AB FF FF FF FF FF
4410.125503 1     0CFFFE03x        Rx    d 8 8E 84 9F 40 60 1D 7F E5
4410.125793 1     18EFFF07x        Rx    d 8 F0 0D FF FF FF FF FF FF
4410.125999 2     18FEF8F0x        Rx    d 8 FF FF FF 7A E0 29 FF FF
4410.127023 1     0CF00400x        Rx    d 8 F1 FF A3 EE 41 FF FF FF
4410.127495 2     0CFFFF2Ax        Rx    d 8 77 15 10 A1 7A 9C 90 FF
4410.128471 1     1CFFFE28x        Rx    d 8 A7 50 03 00 68 08 00 00
4410.129786 1     1CE60626x        Rx    d 8 A8 11 04 00 25 00 00 00
4410.130908 1     0CACFF13x        Rx    d 8 65 7D 10 FF FF FF FF FF
4410.131194 1     18FFFA13x        Rx    d 8 02 62 FF FF FF FF 01 04
4410.131614 1     0CFE4523x        Rx    d 8 0C 4F 78 FF FF FF FF FF
4410.131875 2     18FFFAF0x        Rx    d 8 02 62 FF FF FF FF 01 04
4410.131900 1     18EFFF22x        Rx    d 8 F0 09 FF FF 0F FF FF FF
4410.132186 1     0CFE1222x        Rx    d 8 7D 7D F0 3F FF FF FF FF
4410.132479 1     0CFFFAF0x        Rx    d 8 00 07 AB FF FF FF FF FF
4410.132765 1     0CFE1322x        Rx    d 8 7D 7D F0 3F FF FF FF FF
4410.132976 2     0CACFFF0x        Rx    d 8 65 7D 10 FF FF FF FF FF
4410.133041 1     0CFFFFF0x        Rx    d 8 77 15 10 A1 7A 9C 90 FF
4410.133325 1     0CFE1422x        Rx    d 8 5A A0 F2 3F FF FF FF FF
4410.133548 2     0CFE45F0x        Rx    d 8 0C 4F 78 FF FF FF FF FF
4410.133615 1     18FFFA22x        Rx    d 8 00 14 FF FF 3F FF FF FF
4410.134128 2     0CFE12F0x        Rx    d 8 7D 7D F0 3F FF FF FF FF
4410.134447 1     04EF0006x        Rx    d 8 64 15 18 F0 6C 23 D8 21
4410.134705 2     0CFFFFF0x        Rx    d 8 55 7D 7D 7D 7D 7D FF FF
4410.135000 1     18F00106x        Rx    d 8 FF FF FF FF 00 FF FF FF
4410.135273 2     0CFE49F0x        Rx    d 8 1F 09 49 33 84 01 FF FF
4410.135286 1     08FE6E47x        Rx    d 8 FF FF FF FF 60 08 FF FF
4410.135568 1     0CFFFF31x        Rx    d 8 5E 0D FC 3F FF 4F F0 FF
4410.135858 2     0CFFFA23x        Rx    d 8 00 06 B3 FF FF FF FF FF
4410.135858 1     18F00503x        Rx    d 8 84 FF FF FF FF FF FF FF
4410.136136 1     0CFFFE05x        Rx    d 8 8B 84 FF F1 B0 04 41 3C
4410.136446 1     0CEFFF05x        Rx    d 8 6E FF FF 00 FF FF FF FF
4410.136454 2     18001E1Ex        Rx    d 8 00 40 00 00 00 00 00 00
4410.136917 1     0CF00300x        Rx    d 8 FF FE 30 FF FF FF FF FF
4410.137205 1     0CEFFF00x        Rx    d 8 64 06 83 7F FF FF FF FF
4410.137489 1     0CF00400x        Rx    d 8 F1 FF A3 DE 41 FF FF FF
4410.142272 1     0CFFFAF0x        Rx    d 8 00 06 B3 FF FF FF FF FF
4410.142490 2     0CFE13F0x        Rx    d 8 7D 7D F0 3F FF FF FF FF
4410.143014 1     18EFFF8Cx        Rx    d 8 F0 0C FF FF 88 8F FF FF
4410.143066 2     0CFE14F0x        Rx    d 8 5A A0 F2 3F FF FF FF FF
4410.143300 1     0CFFFF8Cx        Rx    d 8 55 7D 7D 7D 7D 7D FF FF
4410.143574 1     18EFFF8Bx        Rx    d 8 F4 31 88 88 81 51 78 FF
4410.143707 2     19EFE1C5x        Rx    d 8 4A EA 8D B7 77 44 C0 00
4410.143866 1     0CFFFF8Cx        Rx    d 8 97 FF FF FF FF FF FF FF
4410.145354 1     0CFFFE03x        Rx    d 8 8E 84 9F 40 70 1D 7F E4
4410.145664 1     0CFFFF07x        Rx    d 8 5D FF FF FF FF FF FF FF
4410.146797 1     0CF00400x        Rx    d 8 F1 FF A3 FA 41 FF FF FF
4410.147085 1     18FDB300x        Rx    d 8 FF FF B0 4E FF FF FF FF
4410.152610 1     0CFE4137x        Rx    d 8 0F 03 00 0F FF FF FF FF
4410.152894 1     18EFFF37x        Rx    d 8 F0 09 FF FF FF 00 F0 FF
4410.152967 2     0CFE48F0x        Rx    d 8 14 09 6B 3D 84 01 05 F5
4410.154494 1     04EF0006x        Rx    d 8 64 15 19 F0 6C 23 D8 21
4410.155150 1     08FE6E47x        Rx    d 8 FF FF FF FF 62 08 FF FF
4410.155444 1     0CFE0A05x        Rx    d 8 FF FF FF FF FF FF FF FF
4410.155744 1     0CF02205x        Rx    d 8 12 09 FF FF FF FF FF 21
4410.156036 1     0CFFFE05x        Rx    d 8 8B 84 FF F1 B0 04 41 3D
4410.156327 1     0DEF0607x        Rx    d 8 01 31 B0 43 FF FF FF F0
4410.156619 1     0CEFFF05x        Rx    d 8 6E FF FF 00 FF FF FF FF
4410.156911 1     0CF00300x        Rx    d 8 FF FE 2E FF FF FF FF FF
4410.157199 1     0CEFFF00x        Rx    d 8 64 06 8F 7F FF FF FF FF
4410.157486 1     0CF00400x        Rx    d 8 F1 FF A3 EC 41 FF FF FF
4410.157768 1     18F02300x        Rx    d 8 54 0D F2 FF FF 70 FF FF
4410.162644 2     0CFE0AF0x        Rx    d 8 FF FF FF FF FF FF FF FF
4410.162880 1     0CFFFE8Cx        Rx    d 8 8D FB FB 7D C0 FF FF FF
4410.163180 1     0CFFFF8Cx        Rx    d 8 99 FF FF FF FF FF FF FF
4410.163212 2     0CF022F0x        Rx    d 8 12 09 FF FF FF FF FF 21
4410.163470 1     0CFFFE8Cx        Rx    d 8 8C FF 22 FB FB F0 FF 1F
4410.163772 1     0CFFF88Cx        Rx    d 8 92 FF FF FF FF FF FF FF
4410.164540 1     0CFFFEC6x        Rx    d 8 EA C3 09 FF FF 04 FF FF
4410.165193 1     18FFFA47x        Rx    d 8 02 48 F1 01 C0 5F FF FF
4410.165473 1     0CFFFE03x        Rx    d 8 8E 84 9F 40 78 1D 7F E5
4410.165759 1     18EFFF47x        Rx    d 8 F0 09 FF FF FF FF FF 00
4410.166911 1     0CF00400x        Rx    d 8 F1 FF A2 FE 41 FF FF FF
4410.167197 1     18FEDF00x        Rx    d 8 89 EC 41 FF FF FF FF 05
4410.171240 2     18FFFB26x        Rx    d 8 00 41 01 07 01 7A F9 FF
4410.171808 2     18FFFB26x        Rx    d 8 00 41 02 0D 3C 12 59 52
4410.171919 1     18FFFA22x        Rx    d 8 02 41 FA 7D 40 7D FF C0
4410.172217 1     18FFFA22x        Rx    d 8 02 44 F6 7D FF 7D FF C0
4410.172364 2     18FFFB26x        Rx    d 8 00 41 03 1B D4 31 96 BC
4410.172928 2     18FFFB26x        Rx    d 8 00 41 04 39 B4 52 45 D8
4410.172956 1     18FFFAF0x        Rx    d 8 02 40 00 40 40 3F FF FF
4410.173504 2     0CFFFFF0x        Rx    d 8 55 7D 7D 7D 7D 7D FF FF
4410.174056 2     18FFFB26x        Rx    d 8 00 41 05 6C 64 5B 08 50
4410.174620 1     04EF0006x        Rx    d 8 64 15 1A F0 3D 23 D8 21
4410.174632 2     18FFFB26x        Rx    d 8 00 41 06 AF 64 FF FF FF
4410.175156 1     08FE6E47x        Rx    d 8 FF FF FF FF 69 08 FF FF
4410.175229 2     18001E1Ex        Rx    d 8 00 40 00 00 00 00 00 00
4410.175442 1     0CFFFE06x        Rx    d 8 5C B0 43 B0 43 FF FF FF
4410.175734 1     18FDCD91x        Rx    d 8 0F FF FF FF FF FF FF FF
4410.175813 2     0CFE41F0x        Rx    d 8 0F 03 00 0F FF FF 00 01
4410.176016 1     0CFFFF31x        Rx    d 8 5E 0D FC 3F FF 4F F0 FF
4410.176308 1     18FD0726x        Rx    d 8 00 00 00 FF FF FF FF FF
4410.176397 2     18FE474Cx        Rx    d 8 FF FF FF FF FF FF FF FF
4410.176600 1     0CFE4831x        Rx    d 8 FF FF FF FF FF FF FF F7
4410.176891 1     0CF00300x        Rx    d 8 FF FE 2D FF FF FF FF FF
4410.176965 2     18FFFAF0x        Rx    d 8 02 44 F6 7D FF 7D FF C0
4410.177177 1     0CEFFF00x        Rx    d 8 64 06 6F 7F FF FF FF FF
4410.177463 1     0CF00400x        Rx    d 8 F1 FF A2 0C 42 FF FF FF
4410.177546 2     18FFFB26x        Rx    d 8 00 41 07 CE 01 FF FF FF
4410.177741 1     0CFFFE05x        Rx    d 8 8B 84 FF F1 B0 04 41 3C
4410.178036 1     18FEF200x        Rx    d 8 53 03 FF FF FF FF FF FF
4410.178328 1     0CEFFF05x        Rx    d 8 6E FF FF 00 FF FF FF FF
4410.178612 1     18FFF819x        Rx    d 8 05 1A 16 34 00 00 00 00
4410.178766 2     18FEF2F0x        Rx    d 8 53 03 FF FF FF FF FF FF
4410.178904 1     18FFFA07x        Rx    d 8 00 0F FF FF 17 F1 FF FF
4410.179200 1     18FFF819x        Rx    d 8 08 FF FF FF FF FF FF FF
4410.179490 1     18FFFA31x        Rx    d 8 00 14 7F FF FF FF FF FF
4410.179793 1     18FFFB31x        Rx    d 8 F2 26 45 FF CF FF FF FF
4410.180083 1     1CE72623x        Rx    d 8 FF FF FF FF FF FF FF FF
4410.180371 1     18EFFF05x        Rx    d 8 F0 0D FF FF F0 0F FF FF
4410.180659 1     1CE72622x        Rx    d 8 FF FF FF FF FF FF FF FF
4410.180941 1     18FFFE05x        Rx    d 8 6F 00 00 84 CF 2F FF 10
4410.182102 2     0CFFFEC5x        Rx    d 8 AD FF 40 CF 9B 00 FF FF
4410.183001 1     0CFFFF8Cx        Rx    d 8 4D FF FF FA FD FF FF FF
4410.183295 1     0CFFFF8Cx        Rx    d 8 55 7D 7D 7D 7D 7D FF FF
4410.183595 1     0CFFFF8Cx        Rx    d 8 97 FF FF FF FF FF FF FF
4410.185333 1     0CFE4947x        Rx    d 8 26 09 FF FF FF FF FF FF
4410.185628 1     0CFFFE03x        Rx    d 8 8E 84 9F 40 60 1D 7F E4
4410.185928 1     0CFE4307x        Rx    d 8 88 22 FF FF 51 F3 FF FF
4410.186822 1     0CF00400x        Rx    d 8 F1 FF A1 EE 41 FF FF FF
4410.192608 1     18EFFFF0x        Rx    d 8 F0 09 FF FF F0 FF FF FF
4410.192635 2     0CFE43F0x        Rx    d 8 88 22 FF FF 51 F3 FF FF
4410.193418 1     18EFFF26x        Rx    d 8 F0 0F FF FF 0F FF FF FF
4410.194583 1     04EF0006x        Rx    d 8 64 15 1B F0 E2 22 D8 21
4410.195137 1     08FE6E47x        Rx    d 8 FF FF FF FF 60 08 FF FF
4410.195423 1     18EFFF06x        Rx    d 8 F0 0D FF FF 0F FF FF FF
4410.195709 1     0CFFFE91x        Rx    d 8 83 FD FF FF CC FF FF FF
4410.196009 1     0CFFFF31x        Rx    d 8 5C F1 FF 00 00 00 FF FD
4410.196305 1     0CFFFE05x        Rx    d 8 8B 84 FF F1 B0 04 41 3D
4410.196615 1     0CEFFF05x        Rx    d 8 6E FF FF 00 FF FF FF FF
4410.196907 1     0CF00300x        Rx    d 8 FF FE 2E FF FF FF FF FF
4410.197198 1     0CEFFF00x        Rx    d 8 64 06 5E 7F FF FF FF FF
4410.197482 1     0CF00400x        Rx    d 8 F1 FF A1 06 42 FF FF FF
4410.197770 1     18EF0600x        Rx    d 8 64 0E 20 00 FF FF FF FF
4410.198130 1     1CE72606x        Rx    d 8 FF FF FF FF FF FF FF FF
4410.198434 1     1CE72631x        Rx    d 8 FF FF FF FF FF FF FF FF
4410.198563 2     18CBF7CCx        Rx    d 8 83 00 02 00 00 00 00 00
4410.198741 1     1CE72605x        Rx    d 8 FF FF FF FF FF FF FF FF
4410.199041 1     1CE72631x        Rx    d 8 A8 EA 03 FF 00 00 00 00
4410.199341 1     1CE72606x        Rx    d 8 A8 11 04 FF 24 00 00 00
4410.199663 2     18FECA1Cx        Rx    d 8 04 FF 66 E0 F0 01 FF FF
4410.200125 1     1CE72647x        Rx    d 8 FF FF FF FF FF FF FF FF
4410.200427 1     1CE72607x        Rx    d 8 FF FF FF FF FF FF FF FF
4410.202959 1     0CFFFF8Cx        Rx    d 8 99 FF FF FF FF FF FF FF
4410.203261 1     0CFFF88Cx        Rx    d 8 92 FF FF FF FF FF FF FF
4410.204800 1     0DEF0503x        Rx    d 8 01 00 FF FF FF FF FF F5
4410.205426 1     0CFFFE03x        Rx    d 8 8E 84 9F 40 68 1D 7F E5
4410.206744 1     0CF00400x        Rx    d 8 F1 FF A2 EA 41 FF FF FF
4410.207034 1     18F00128x        Rx    d 8 FF FF FF CF FF FF FF FF
4410.207316 1     18F02300x        Rx    d 8 51 0D F2 FF FF 6F FF FF
4410.208192 1     1CFFFE28x        Rx    d 8 A7 50 01 00 99 08 00 00
4410.210225 1     1CE63126x        Rx    d 8 A8 EA 03 00 00 00 00 00
4410.210959 1     1CE60626x        Rx    d 8 A8 11 04 00 24 00 00 00
4410.211585 1     18EFFF22x        Rx    d 8 F0 09 FF FF 0F FF FF FF
4410.211865 1     0CFE1122x        Rx    d 8 D4 26 F1 3F FF FF FF FF
4410.212155 1     18FFFF22x        Rx    d 8 58 FF FF FF FF FF FF F5
4410.212252 2     0CEFFFC5x        Rx    d 8 F8 01 01 64 04 00 00 18
4410.212439 1     0CFE1422x        Rx    d 8 5A A0 F2 3F FF FF FF FF
4410.212736 1     0CFFFF22x        Rx    d 8 42 C3 C3 FB FB FC FF FF
4410.212816 2     0CF004F0x        Rx    d 8 F1 FF A2 EA 41 FF FF FF
4410.213030 1     0CFE1522x        Rx    d 8 5F 9B F2 3F FF FF FF FF
4410.213400 2     18FFFAF0x        Rx    d 8 02 40 00 40 40 3F FF FF
4410.213968 2     0CFE11F0x        Rx    d 8 D4 26 F1 3F FF FF FF FF
4410.214054 1     18FFF819x        Rx    d 8 04 FF FF FF FF FF FF FF
4410.214370 1     18FFF819x        Rx    d 8 06 FF FF FF FF FF FF FF
4410.214544 2     0CFFFFF0x        Rx    d 8 55 7D 7D 7D 7D 7D FF FF
4410.214647 1     04EF0006x        Rx    d 8 64 15 1C F0 F8 22 D8 21
4410.214939 1     0C000006x        Rx    d 8 30 FF FF FF F8 FF FF FF
4410.215113 2     0CFFFB1Ex        Rx    d 8 00 3F 11 68 04 89 F0 FF
4410.215223 1     18FFF347x        Rx    d 8 23 3D 69 FF FF FF FF FF
4410.215509 1     08FE6E47x        Rx    d 8 FF FF FF FF 60 08 FF FF
4410.215709 2     18001E1Ex        Rx    d 8 00 40 00 00 00 00 00 00
4410.215791 1     0CFFFF31x        Rx    d 8 5E 0D FC 3F FF 4F F0 FF
4410.216075 1     18FEF147x        Rx    d 8 FF 60 08 FF FF FF FF FF
4410.216353 1     0CFFFE05x        Rx    d 8 8B 84 FF F1 B0 04 41 3C
4410.216652 1     18FFF819x        Rx    d 8 07 FF FF FF FF FF FF FF
4410.216944 1     0CEFFF05x        Rx    d 8 6E FF FF 00 FF FF FF FF
4410.217230 1     0CEFFF00x        Rx    d 8 64 06 6E 7F FF FF FF FF
4410.217501 2     1CE6FF26x        Rx    d 8 FE C5 E8 03 AF 04 00 00
4410.217522 1     0CF00300x        Rx    d 8 FF FE 2E FF FF FF FF FF
4410.217809 1     0CF00400x        Rx    d 8 F1 FF A2 0C 42 FF FF FF
4410.218085 1     18EFFF00x        Rx    d 8 64 10 0F 0F 39 28 4F 3E
4410.218377 1     18FED500x        Rx    d 8 FF FF FD FF FF FF FF FF
4410.218667 1     18FFFB06x        Rx    d 8 00 05 A0 C8 FF FF FF FF
4410.218955 1     1CE6FF26x        Rx    d 8 FE FE FF FF FF FF 00 00
4410.219249 1     18FFFE05x        Rx    d 8 10 FF FF FF FF FF FF FF
4410.219405 2     18FFFBF0x        Rx    d 8 00 05 A0 C8 FF FF FF FF
4410.219566 1     18FFF805x        Rx    d 8 20 FF FF FF FF FF FF FF
4410.222481 2     0CFE14F0x        Rx    d 8 5A A0 F2 3F FF FF FF FF
4410.222990 1     0CFFFE8Cx        Rx    d 8 63 FF FF FD FF FF FF FF
4410.223054 2     0CFFFFF0x        Rx    d 8 42 C3 C3 FB FB FC FF FF
4410.223284 1     0CFFFF8Cx        Rx    d 8 55 7D 7D 7D 7D 7D FF FF
4410.223584 1     0CFFFF8Cx        Rx    d 8 97 FF FF FF FF FF FF FF
4410.223626 2     0CFE15F0x        Rx    d 8 5F 9B F2 3F FF FF FF FF
4410.225276 1     18FEF803x        Rx    d 8 FF FF FF 7A E0 29 FF FF
4410.225556 1     0CFFFE03x        Rx    d 8 8E 84 9F 40 70 1D 7F E4
4410.225638 2     0CFFFA23x        Rx    d 8 00 07 AB FF FF FF FF FF
4410.225846 1     18EFFF07x        Rx    d 8 F0 0D FF FF FF FF FF FF
4410.226211 2     18FEF8F0x        Rx    d 8 FF FF FF 7A E0 29 FF FF
4410.226753 1     0CF00400x        Rx    d 8 F1 FF A2 FE 41 FF FF FF
4410.230905 1     0CACFF13x        Rx    d 8 6F 7D 10 FF FF FF FF FF
4410.231191 1     18FFFA13x        Rx    d 8 02 62 FF FF FF FF 01 04
4410.231939 2     18FFFAF0x        Rx    d 8 02 62 FF FF FF FF 01 04
4410.232343 1     0CFFFAF0x        Rx    d 8 00 07 AB FF FF FF FF FF
4410.232667 2     0CACFFF0x        Rx    d 8 6F 7D 10 FF FF FF FF FF
4410.233235 2     0CFE49F0x        Rx    d 8 26 09 33 34 84 01 FF FF
4410.234517 1     04EF0006x        Rx    d 8 64 15 1D F0 E2 22 D8 21
4410.235063 1     18F00106x        Rx    d 8 FF FF FF FF 00 FF FF FF
4410.235345 1     08FE6E47x        Rx    d 8 FF FF FF FF 65 08 FF FF
4410.235564 2     0CFFFA23x        Rx    d 8 00 06 B3 FF FF FF FF FF
4410.235624 1     0CFFFE05x        Rx    d 8 8B 84 FF F1 B0 04 41 3D
4410.235914 1     18F00503x        Rx    d 8 84 FF FF FF FF FF FF FF
4410.236206 1     0CEFFF05x        Rx    d 8 6E FF FF 00 FF FF FF FF
4410.236970 1     0CF00300x        Rx    d 8 FF FE 2E FF FF FF FF FF
4410.237256 1     0CEFFF00x        Rx    d 8 64 06 71 7F FF FF FF FF
4410.237543 1     0CF00400x        Rx    d 8 F1 FF A2 0E 42 FF FF FF
4410.242264 2     1CE726C5x        Rx    d 8 FF FF FF FF FF FF FF FF
4410.242351 1     0CFFFAF0x        Rx    d 8 00 06 B3 FF FF FF FF FF
4410.242963 1     0CFFFE8Cx        Rx    d 8 63 FF FF FC FF FF FF FF
4410.243251 1     18EFFF8Cx        Rx    d 8 F0 0C FF FF 88 8F FF FF
4410.243543 1     0CFFFF8Cx        Rx    d 8 99 FF FF FF FF FF FF FF
4410.243818 1     18EFFF8Bx        Rx    d 8 F4 31 88 88 81 51 78 FF
4410.244112 1     0CFFF88Cx        Rx    d 8 92 FF FF FF FF FF FF FF
4410.245326 1     0CFFFE03x        Rx    d 8 8E 84 9F 40 68 1D 7F E5
4410.247022 1     0CF00400x        Rx    d 8 F1 FF A1 F4 41 FF FF FF
4410.248748 1     1CFFFE28x        Rx    d 8 A7 50 14 00 A0 41 00 00
4410.251784 1     0CFE4523x        Rx    d 8 0C 4F 78 FF FF FF FF FF
4410.252070 1     18FFFA23x        Rx    d 8 02 47 F1 7D C0 FF FF F6
4410.252357 1     0CFE1222x        Rx    d 8 7D 7D F0 3F FF FF FF FF
4410.252639 1     18FEF795x        Rx    d 8 FF FF FF FF 11 01 11 01
4410.252764 2     0CFE45F0x        Rx    d 8 0C 4F 78 FF FF FF FF FF
4410.252925 1     0CFE1322x        Rx    d 8 7D 7D F0 3F FF FF FF FF
4410.253209 1     18EFFF37x        Rx    d 8 F0 09 FF FF FF 00 F0 FF
4410.253341 2     0CFFFFF0x        Rx    d 8 55 7D 7D 7D 7D 7D FF FF
4410.253497 1     0CEFFF95x        Rx    d 8 E4 FF FF FF FF FF FF 00
4410.253783 1     18EFFF95x        Rx    d 8 F1 1D FF 59 FF FF FF FF
4410.253901 2     0CFE48F0x        Rx    d 8 16 09 53 3E 84 01 05 F5
4410.254078 1     18FFFE19x        Rx    d 8 05 F5 FF FF FF FF FF FF
4410.254362 1     18FE8D95x        Rx    d 8 12 01 11 01 FF FF FF FF
4410.254638 1     04EF0006x        Rx    d 8 64 15 1E F0 E2 22 D8 21
4410.254717 2     18001E1Ex        Rx    d 8 00 40 00 00 00 00 00 00
4410.254936 1     18FFFFF0x        Rx    d 8 19 FC FF FF FF FF FF FF
4410.255222 1     08FE6E47x        Rx    d 8 FF FF FF FF 60 08 FF FF
4410.255504 1     0CFFFF31x        Rx    d 8 5E 0D FC 3F FF 4F F0 FF
4410.255817 1     0CFE0A05x        Rx    d 8 FF FF FF FF FF FF FF FF
4410.256113 1     0CF02205x        Rx    d 8 19 09 FF FF FF FF FF 21
4410.256403 1     0DEF0607x        Rx    d 8 01 31 B0 43 FF FF FF F0
4410.256681 1     0CFFFE05x        Rx    d 8 8B 84 FF F1 B0 04 41 3C
4410.256973 1     0CF00300x        Rx    d 8 FF FE 2E FF FF FF FF FF
4410.257262 1     0CEFFF00x        Rx    d 8 64 06 62 7F FF FF FF FF
4410.257554 1     0CEFFF05x        Rx    d 8 6E FF FF 00 FF FF FF FF
4410.257842 1     0CF00400x        Rx    d 8 F1 FF A1 F8 41 FF FF FF
4410.258124 1     18F02300x        Rx    d 8 51 0D F2 FF FF 6F FF FF
4410.262105 2     18FE47C5x        Rx    d 8 FF CC FF FF FF FF FF FF
4410.262685 2     0CFE12F0x        Rx    d 8 7D 7D F0 3F FF FF FF FF
4410.262950 1     0CFFFE8Cx        Rx    d 8 8D FB FB 7D C0 FF FF FF
4410.263240 1     0CFFFE8Cx        Rx    d 8 8C FF 22 FB FB F0 FF 1F
4410.263274 2     0CFE13F0x        Rx    d 8 7D 7D F0 3F FF FF FF FF
4410.263534 1     0CFFFF8Cx        Rx    d 8 55 7D 7D 7D 7D 7D FF FF
4410.263834 1     0CFFFF8Cx        Rx    d 8 97 FF FF FF FF FF FF FF
4410.263862 2     0CFE0AF0x        Rx    d 8 FF FF FF FF FF FF FF FF
4410.264434 2     0CF022F0x        Rx    d 8 19 09 FF FF FF FF FF 21
4410.264547 1     0CFFFEC6x        Rx    d 8 EA C3 09 FF FF 00 FF FF
4410.264839 1     0DEF0603x        Rx    d 8 01 01 FF FF FF FF FF F5
4410.265329 1     18EFFF47x        Rx    d 8 F0 09 FF FF FF FF FF 00
4410.265609 1     0CFFFE03x        Rx    d 8 8E 84 9F 40 68 1D 7F E4
4410.265893 1     18FFFA07x        Rx    d 8 02 4A F1 02 C0 C0 C0 C0
4410.266991 1     0CF00400x        Rx    d 8 F1 FF A2 F8 41 FF FF FF
4410.267282 1     18FEDF00x        Rx    d 8 89 F0 41 FF FF FF FF 05
4410.272750 1     18FFFAF0x        Rx    d 8 02 40 00 40 40 3F FF FF
4410.274712 1     04EF0006x        Rx    d 8 64 15 1F F0 15 23 D8 21
4410.275126 1     08FE6E47x        Rx    d 8 FF FF FF FF 62 08 FF FF
4410.275413 1     0CFFFE06x        Rx    d 8 5C B0 43 B0 43 FF FF FF
4410.275707 1     18FFFA07x        Rx    d 8 00 0F FF FF 13 F1 FF FF
4410.275995 1     0CFDCC91x        Rx    d 8 00 00 FF FF FF FF FF FF
4410.276279 1     1CFFFB32x        Rx    d 8 F1 10 FF FC FF FF FF FF
4410.276571 1     0CFE4831x        Rx    d 8 FF FF FF FF FF FF FF F7
4410.276859 1     18EFFF05x        Rx    d 8 F0 0D FF FF F0 0F FF FF
4410.277149 1     0CF00300x        Rx    d 8 FF FE 2D FF FF FF FF FF
4410.277436 1     0CEFFF00x        Rx    d 8 64 06 6E 7F FF FF FF FF
4410.277724 1     0CF00400x        Rx    d 8 F1 FF A2 F8 41 FF FF FF
4410.278002 1     0CFFFE05x        Rx    d 8 8B 84 FF F1 B0 04 41 3D
4410.278296 1     18FEF200x        Rx    d 8 53 03 FF FF FF FF FF FF
4410.278588 1     0CEFFF05x        Rx    d 8 6E FF FF 00 FF FF FF FF
4410.278870 1     18FFFE05x        Rx    d 8 6F 00 00 84 CF 2F FF 10
4410.279019 2     18FEF2F0x        Rx    d 8 53 03 FF FF FF FF FF FF
4410.279241 1     1CE72631x        Rx    d 8 A8 EA 03 FF 00 00 00 00
4410.279603 2     1CE7261Cx        Rx    d 8 FF FF FF FF FF FF FF FF
4410.280175 1     1CE72606x        Rx    d 8 A8 11 04 FF 23 00 00 00
4410.282619 2     0CFDCCF0x        Rx    d 8 00 00 FF FF FF FF FF FF
4410.282933 1     0CFFFF8Cx        Rx    d 8 4D FF FF FA FD FF FF FF
4410.283233 1     0CFFFF8Cx        Rx    d 8 99 FF FF FF FF FF FF FF
4410.283535 1     0CFFF88Cx        Rx    d 8 92 FF FF FF FF FF FF FF
4410.285249 1     0CFE4947x        Rx    d 8 FF 08 FF FF FF FF FF FF
4410.285563 1     0CFFFE03x        Rx    d 8 8E 84 9F 40 68 1D 7F E5
4410.285867 1     0CFE4307x        Rx    d 8 C8 22 FF FF 51 F3 FF FF
4410.287022 1     0CF00400x        Rx    d 8 F1 FF A1 FA 41 FF FF FF
4410.288572 1     18F00128x        Rx    d 8 FF FF FF CF FF FF FF FF
4410.291778 1     0CFE1122x        Rx    d 8 D4 26 F1 3F FF FF FF FF
4410.292076 1     0CFE1522x        Rx    d 8 5F 9B F2 3F FF FF FF FF
4410.292784 2     0CFE43F0x        Rx    d 8 C8 22 FF FF 51 F3 FF FF
4410.292980 1     18EFFFF0x        Rx    d 8 F0 09 FF FF F0 FF FF FF
4410.293352 2     18FFFFF0x        Rx    d 8 58 AA 6A 7D 7D 7D 7D FF
4410.293744 1     1CE63126x        Rx    d 8 A8 EA 03 00 00 00 00 00
4410.293920 2     0CFE11F0x        Rx    d 8 D4 26 F1 3F FF FF FF FF
4410.294077 1     18FFF819x        Rx    d 8 04 FF FF FF FF FF FF FF
4410.294383 1     18FFF819x        Rx    d 8 05 1A 16 34 00 00 00 00
4410.294492 2     0CFE15F0x        Rx    d 8 5F 9B F2 3F FF FF FF FF
4410.294657 1     04EF0006x        Rx    d 8 64 15 10 F0 15 23 D8 21
4410.294951 1     18FFF819x        Rx    d 8 06 FF FF FF FF FF FF FF
4410.295068 2     0CFFFFF0x        Rx    d 8 55 7D 7D 7D 7D 7D FF FF
4410.295237 1     08FE6E47x        Rx    d 8 FF FF FF FF 60 08 FF FF
4410.295526 1     0CFFFE91x        Rx    d 8 83 FC FF FF CC FF FF FF
4410.295645 2     18EAF01Ex        Rx    d 8 09 FE 00 00 00 00 00 00
4410.295812 1     18EFFF06x        Rx    d 8 F0 0D FF FF 0F FF FF FF
4410.296096 1     0CFFFF31x        Rx    d 8 5C F1 FF 00 00 00 FF FC
4410.296249 2     18001E1Ex        Rx    d 8 00 40 00 00 00 00 00 00
4410.296394 1     18FFF819x        Rx    d 8 07 FF FF FF FF FF FF FF
4410.296676 1     0CFFFF31x        Rx    d 8 5E 0D FC 3F FF 4F F0 FF
4410.296837 2     0CFE09F0x        Rx    d 8 3F FC DB 00 00 00 00 00
4410.296973 1     18FFF819x        Rx    d 8 08 FF FF FF FF FF FF FF
4410.297263 1     0CF00300x        Rx    d 8 FF FE 2D FF FF FF FF FF
4410.297551 1     0CEFFF00x        Rx    d 8 64 06 5D 7F FF FF FF FF
4410.297836 1     0CF00400x        Rx    d 8 F1 FF A1 04 42 FF FF FF
4410.298114 1     0CFFFE05x        Rx    d 8 8B 84 FF F1 B0 04 41 3C
4410.298353 2     1CE7264Cx        Rx    d 8 FF FF FF FF FF FF FF FF
4410.298400 1     18EF0600x        Rx    d 8 64 0E 2A 00 FF FF FF FF
4410.298692 1     0CEFFF05x        Rx    d 8 6E FF FF 00 FF FF FF FF
4410.298905 2     05F0101Cx        Rx    d 8 B4 FF 8F 43 E5 FA 3B 2F
4410.298976 1     1CE60626x        Rx    d 8 A8 11 04 00 23 00 00 00
4410.302986 1     0CFFFF8Cx        Rx    d 8 55 7D 7D 7D 7D 7D FF FF
4410.303286 1     0CFFFF8Cx        Rx    d 8 97 FF FF FF FF FF FF FF
4410.305442 1     0CFFFE03x        Rx    d 8 8E 84 9F 40 68 1D 7F E4
4410.307007 1     0CF00400x        Rx    d 8 F1 FF A1 F0 41 FF FF FF
4410.307293 1     18F02300x        Rx    d 8 4E 0D F2 FF FF 6F FF FF
4410.312590 2     0CF004F0x        Rx    d 8 F1 FF A1 F0 41 FF FF FF
4410.313174 2     18FFFAF0x        Rx    d 8 02 40 00 40 40 3F FF FF
4410.314098 2     0CFEF31Cx        Rx    d 8 BE CF 31 96 08 B3 52 45
4410.314441 1     04EF0006x        Rx    d 8 64 15 11 F0 F8 22 D8 21
4410.314546 2     14EF801Cx        Rx    d 5 3F 11 E4 A9 64 FF FF FF
4410.315021 1     18FFFB06x        Rx    d 8 00 05 A0 C8 FF FF FF FF
4410.315107 2     0CFEE61Cx        Rx    d 8 B8 00 16 05 24 20 FF F9
4410.315307 1     08FE6E47x        Rx    d 8 FF FF FF FF 60 08 FF FF
4410.315585 1     0CFFFE05x        Rx    d 8 8B 84 FF F1 B0 04 41 3D
4410.315731 2     18FFFBF0x        Rx    d 8 00 05 A0 C8 FF FF FF FF
4410.315869 1     18FFF347x        Rx    d 8 23 3D 69 FF FF FF FF FF
4410.316161 1     0CEFFF05x        Rx    d 8 6E FF FF 00 FF FF FF FF
4410.316279 2     0CFEE81Cx        Rx    d 8 86 5A 5E 08 B6 63 01 58
4410.316446 1     18FEF147x        Rx    d 8 FF 60 08 FF FF FF FF FF
4410.316740 1     18FFFE05x        Rx    d 8 10 FF FF FF FF FF FF FF
4410.316887 2     0CFFFF1Cx        Rx    d 8 51 03 02 12 0B 07 08 01
4410.317030 1     0CF00300x        Rx    d 8 FF FE 2D FF FF FF FF FF
4410.317316 1     0CEFFF00x        Rx    d 8 64 06 4E 7F FF FF FF FF
4410.317463 2     0CFFFF1Cx        Rx    d 8 52 25 14 A5 28 C8 7C 2B
4410.317602 1     0CF00400x        Rx    d 8 F1 FF A1 00 42 FF FF FF
4410.317881 1     18EFFF00x        Rx    d 8 64 10 0F 0F 3A 28 4F 3E
4410.318043 2     0CFFFF1Cx        Rx    d 8 53 01 90 7A 04 55 41 54
4410.318179 1     18FFF805x        Rx    d 8 20 FF FF FF FF FF FF FF
4410.318659 2     0CFFFF1Cx        Rx    d 8 A0 04 FF FF FF FF FF FF
4410.319240 2     0CFFFF1Cx        Rx    d 8 54 2F 01 0A A2 EA 7D 4D
4410.319852 2     0CFFFF1Cx        Rx    d 8 E3 FF FF FF FC 01 FF F1
4410.320436 2     0CFFFF1Cx        Rx    d 8 E1 DF F5 63 A9 64 46 00
4410.322583 1     0CFEE8F0x        Rx    d 8 86 5A 5E 08 B6 63 01 58
4410.322877 1     0CFFFFF0x        Rx    d 8 E1 DF F5 63 A9 64 46 00
4410.323170 1     0CFFFF8Cx        Rx    d 8 99 FF FF FF FF FF FF FF
4410.323472 1     0CFFF88Cx        Rx    d 8 92 FF FF FF FF FF FF FF
4410.325198 1     18FEF803x        Rx    d 8 FF FF FF 7A E0 29 FF FF
4410.325480 1     0CFFFE03x        Rx    d 8 8E 84 9F 40 60 1D 7F E5
4410.325572 2     0CFFFA23x        Rx    d 8 00 07 AB FF FF FF FF FF
4410.325770 1     18EFFF07x        Rx    d 8 F0 0D FF FF FF FF FF FF
4410.326145 2     18FEF8F0x        Rx    d 8 FF FF FF 7A E0 29 FF FF
4410.326826 1     0CF00400x        Rx    d 8 F1 FF A1 EA 41 FF FF FF
4410.327813 2     0CFFFF2Ax        Rx    d 8 77 15 10 FE 7A 7A 90 FF
4410.330906 1     0CACFF13x        Rx    d 8 76 7D 10 FF FF FF FF FF
4410.331193 1     18FFFA13x        Rx    d 8 02 62 FF FF FF FF 01 04
4410.331815 1     0CFE4523x        Rx    d 8 0C 4F 78 FF FF FF FF FF
4410.331941 2     18FFFAF0x        Rx    d 8 02 62 FF FF FF FF 01 04
4410.332101 1     18EFFF22x        Rx    d 8 F0 09 FF FF 0F FF FF FF
4410.332387 1     0CFE1222x        Rx    d 8 7D 7D F0 3F FF FF FF FF
4410.332679 1     0CFFFAF0x        Rx    d 8 00 07 AB FF FF FF FF FF
4410.332965 1     0CFE1322x        Rx    d 8 7D 7D F0 3F FF FF FF FF
4410.333093 2     0CACFFF0x        Rx    d 8 76 7D 10 FF FF FF FF FF
4410.333244 1     0CFFFFF0x        Rx    d 8 77 15 10 FE 7A 7A 90 FF
4410.333528 1     0CFE1422x        Rx    d 8 5A A0 F2 3F FF FF FF FF
4410.333666 2     0CFE45F0x        Rx    d 8 0C 4F 78 FF FF FF FF FF
4410.334250 2     0CFE12F0x        Rx    d 8 7D 7D F0 3F FF FF FF FF
4410.334320 1     04EF0006x        Rx    d 8 64 15 12 F0 F8 22 D8 21
4410.334826 2     0CFFFFF0x        Rx    d 8 55 7D 7D 7D 7D 7D FF FF
4410.334872 1     18F00106x        Rx    d 8 FF FF FF FF 00 FF FF FF
4410.335156 1     08FE6E47x        Rx    d 8 FF FF FF FF 5E 08 FF FF
4410.335390 2     0CFE49F0x        Rx    d 8 FF 08 1D 35 84 01 FF FF
4410.335438 1     0CFFFF31x        Rx    d 8 5E 0D FC 3F FF 4F F0 FF
4410.335728 1     18F00503x        Rx    d 8 84 FF FF FF FF FF FF FF
4410.335975 2     0CFFFA23x        Rx    d 8 00 06 B3 FF FF FF FF FF
4410.336007 1     0CFFFE05x        Rx    d 8 8B 84 FF F1 B0 04 41 3C
4410.336297 1     18FFF8FBx        Rx    d 8 54 08 05 00 00 00 00 00
4410.336571 2     18001E1Ex        Rx    d 8 00 40 00 00 00 00 00 00
4410.336589 1     0CEFFF05x        Rx    d 8 6E FF FF 00 FF FF FF FF
4410.336879 1     0CF00300x        Rx    d 8 FF FE 2D FF FF FF FF FF
4410.337167 1     0CEFFF00x        Rx    d 8 64 06 57 7F FF FF FF FF
4410.337455 1     0CF00400x        Rx    d 8 F1 FF A1 FC 41 FF FF FF
4410.337744 1     18FEEF00x        Rx    d 8 03 FF FF 7F FF FF 21 FA
4410.338036 1     1CE72637x        Rx    d 8 FF FF FF FF FF FF FF FF
4410.338487 2     18FEEFF0x        Rx    d 8 03 FF FF 7F FF FF 21 FA
4410.338879 2     14EF801Cx        Rx    d 3 3F 00 C3 FF FF FF FF FF
4410.339459 2     18FE47E1x        Rx    d 8 5F FF FF FF FF FF FF FF
4410.342239 2     18FFF8C5x        Rx    d 8 F3 60 4C FF FF FF FF FF
4410.342280 1     0CFFFAF0x        Rx    d 8 00 06 B3 FF FF FF FF FF
4410.342828 2     0CFE13F0x        Rx    d 8 7D 7D F0 3F FF FF FF FF
4410.343031 1     0CFFFE8Cx        Rx    d 8 63 FF FF FC FF FF FF FF
4410.343319 1     18EFFF8Cx        Rx    d 8 F0 0C FF FF 88 8F FF FF
4410.343404 2     0CCBF7C5x        Rx    d 8 23 00 0C 00 00 00 00 00
4410.343605 1     0CFFFF8Cx        Rx    d 8 55 7D 7D 7D 7D 7D FF FF
4410.343879 1     18EFFF8Bx        Rx    d 8 F4 31 88 88 81 51 78 FF
4410.343976 2     0CFE14F0x        Rx    d 8 5A A0 F2 3F FF FF FF FF
4410.344171 1     0CFFFF8Cx        Rx    d 8 97 FF FF FF FF FF FF FF
4410.344513 2     19EFE1C5x        Rx    d 8 4A EA 8D CA 77 44 C0 00
4410.345361 1     0CFFFE03x        Rx    d 8 8E 84 9F 40 60 1D 7F E4
4410.346843 1     0CF00400x        Rx    d 8 F1 FF A1 00 42 FF FF FF
4410.352544 1     18EFFF37x        Rx    d 8 F0 09 FF FF FF 00 F0 FF
4410.352685 2     0CFE48F0x        Rx    d 8 16 09 3B 3F 84 01 05 F5
4410.354578 1     04EF0006x        Rx    d 8 64 15 13 F0 15 23 D8 21
4410.355150 1     08FE6E47x        Rx    d 8 FF FF FF FF 5E 08 FF FF
4410.355444 1     0CFE0A05x        Rx    d 8 FF FF FF FF FF FF FF FF
4410.355732 1     18FFFA05x        Rx    d 8 02 61 FF 00 FF FF FF C1
4410.356017 1     0CF02205x        Rx    d 8 17 09 FF FF FF FF FF 21
4410.356307 1     0DEF0607x        Rx    d 8 01 31 B0 43 FF FF FF F0
4410.356585 1     0CFFFE05x        Rx    d 8 8B 84 FF F1 B0 04 41 3D
4410.356875 1     0CF00300x        Rx    d 8 FF FE 2D FF FF FF FF FF
4410.357163 1     0CEFFF00x        Rx    d 8 64 06 5D 7F FF FF FF FF
4410.357455 1     0CEFFF05x        Rx    d 8 6E FF FF 00 FF FF FF FF
4410.357740 1     0CF00400x        Rx    d 8 F1 FF A1 EC 41 FF FF FF
4410.358026 1     18F02300x        Rx    d 8 4E 0D F2 FF FF 6F FF FF
4410.358616 1     1CE72631x        Rx    d 8 A8 EA 03 FF 00 00 00 00
4410.362618 2     0CFE0AF0x        Rx    d 8 FF FF FF FF FF FF FF FF
4410.362918 1     0CFFFE8Cx        Rx    d 8 63 FF FF FD FF FF FF FF
4410.363190 2     0CF022F0x        Rx    d 8 17 09 FF FF FF FF FF 21
4410.363212 1     0CFFFE8Cx        Rx    d 8 8D FB FB 7D C0 FF FF FF
4410.363512 1     0CFFFF8Cx        Rx    d 8 99 FF FF FF FF FF FF FF
4410.363802 1     0CFFFE8Cx        Rx    d 8 8C FF 22 FB FB F0 FF 1F
4410.364104 1     0CFFF88Cx        Rx    d 8 92 FF FF FF FF FF FF FF
4410.364567 1     0CFFFEC6x        Rx    d 8 EA C3 09 FF FF 04 FF FF
4410.365153 1     18FFF347x        Rx    d 8 22 FF FC FF FF FF FF FF
4410.365435 1     0CFFFE03x        Rx    d 8 8E 84 9F 40 68 1D 7F E5
4410.365721 1     18EFFF47x        Rx    d 8 F0 09 FF FF FF FF FF 00
4410.366863 1     0CF00400x        Rx    d 8 F1 FF A1 F2 41 FF FF FF
4410.367152 1     18FEDF00x        Rx    d 8 89 F2 41 FF FF FF FF 05
4410.367432 1     1CE63126x        Rx    d 8 A8 EA 03 00 00 00 00 00
4410.371906 2     18FFFB26x        Rx    d 8 00 41 01 07 01 7A F9 FF
4410.372482 2     18FFFB26x        Rx    d 8 00 41 02 0E 3C 12 59 02
4410.372928 1     18FFFAF0x        Rx    d 8 02 40 00 40 40 3F FF FF
4410.373058 2     0CFFFFF0x        Rx    d 8 55 7D 7D 7D 7D 7D FF FF
4410.373614 2     18FFFB26x        Rx    d 8 00 41 03 F6 D3 31 96 F5
4410.374174 2     18FFFB26x        Rx    d 8 00 41 04 2A B4 52 45 86
4410.374610 1     04EF0006x        Rx    d 8 64 15 14 F0 3D 23 D8 21
4410.374771 2     18001E1Ex        Rx    d 8 00 40 00 00 00 00 00 00
4410.375158 1     0CFFFE06x        Rx    d 8 5C B0 43 B0 43 FF FF FF
4410.375327 2     18FFFB26x        Rx    d 8 00 41 05 BF 63 55 08 F0
4410.375444 1     08FE6E47x        Rx    d 8 FF FF FF FF 60 08 FF FF
4410.375727 1     0CFFFF31x        Rx    d 8 5E 0D FC 3F FF 4F F0 FF
4410.375903 2     18FFFB26x        Rx    d 8 00 41 06 E2 64 FF FF FF
4410.376019 1     18FFFA07x        Rx    d 8 00 0F FF FF 17 F1 FF FF
4410.376311 1     0CFE4831x        Rx    d 8 FF FF FF FF FF FF FF F7
4410.376495 2     18FFFB26x        Rx    d 8 00 41 07 D0 01 FF FF FF
4410.376595 1     18FFF819x        Rx    d 8 05 1A 16 34 00 00 00 00
4410.376887 1     0CF00300x        Rx    d 8 FF FE 2E FF FF FF FF FF
4410.377178 1     0CEFFF00x        Rx    d 8 64 06 5F 7F FF FF FF FF
4410.377462 1     0CF00400x        Rx    d 8 F1 FF A1 D8 41 FF FF FF
4410.377740 1     0CFFFE05x        Rx    d 8 8B 84 FF F1 B0 04 41 3C
4410.378032 1     18FEF200x        Rx    d 8 44 03 FF FF FF FF FF FF
4410.378324 1     0CEFFF05x        Rx    d 8 6E FF FF 00 FF FF FF FF
4410.378620 1     18FFF819x        Rx    d 8 08 FF FF FF FF FF FF FF
4410.378691 2     18FEF2F0x        Rx    d 8 44 03 FF FF FF FF FF FF
4410.378903 1     18FFFF06x        Rx    d 8 73 30 43 13 FF C0 F8 FF
4410.379203 1     18EFFF05x        Rx    d 8 F0 0D FF FF F0 0F FF FF
4410.379503 1     18FFFE05x        Rx    d 8 6F 00 00 84 CF 2F FF 10
4410.379807 1     18FFFA05x        Rx    d 8 02 59 FF FF FF FF FF FF
4410.382163 2     0CFFFEC5x        Rx    d 8 AD FF 40 CF 9B 00 FF FF
4410.382989 1     0CFFFF8Cx        Rx    d 8 4D FF FF FA FD FF FF FF
4410.383283 1     0CFFFF8Cx        Rx    d 8 55 7D 7D 7D 7D 7D FF FF
4410.383583 1     0CFFFF8Cx        Rx    d 8 97 FF FF FF FF FF FF FF
4410.385306 1     0CFE4947x        Rx    d 8 B2 08 FF FF FF FF FF FF
4410.385598 1     0CFFFE03x        Rx    d 8 8E 84 9F 40 50 1D 7F E4
4410.385896 1     0CFE4307x        Rx    d 8 E0 22 FF FF 51 F3 FF FF
4410.386766 1     0CF00400x        Rx    d 8 F1 FF A2 F0 41 FF FF FF
4410.392615 1     18EFFFF0x        Rx    d 8 F0 09 FF FF F0 FF FF FF
4410.392640 2     0CFE43F0x        Rx    d 8 E0 22 FF FF 51 F3 FF FF
4410.393809 2     18FF02CCx        Rx    d 8 05 06 00 F0 FF FF FF F3
4410.394559 1     04EF0006x        Rx    d 8 64 15 15 F0 6C 23 D8 21
4410.395133 1     18EFFF06x        Rx    d 8 F0 0D FF FF 0F FF FF FF
4410.395415 1     08FE6E47x        Rx    d 8 FF FF FF FF 59 08 FF FF
4410.395703 1     0CFFFE91x        Rx    d 8 83 FC FF FF CC FF FF FF
4410.395989 1     18FFFA05x        Rx    d 8 02 4B FA 00 00 40 FF CD
4410.396271 1     0CFFFF31x        Rx    d 8 5C F1 FF 00 00 00 FF FD
4410.396567 1     0CFFFE05x        Rx    d 8 8B 84 FF F1 B0 04 41 3D
4410.396860 1     0CF00300x        Rx    d 8 FF FE 2E FF FF FF FF FF
4410.397146 1     0CEFFF00x        Rx    d 8 64 06 6C 7F FF FF FF FF
4410.397438 1     0CEFFF05x        Rx    d 8 6E FF FF 00 FF FF FF FF
4410.397722 1     0CF00400x        Rx    d 8 F1 FF A2 DE 41 FF FF FF
4410.398010 1     18EF0600x        Rx    d 8 64 0E 34 00 FF FF FF FF
4410.402955 1     0CFFFF8Cx        Rx    d 8 99 FF FF FF FF FF FF FF
4410.403257 1     0CFFF88Cx        Rx    d 8 92 FF FF FF FF FF FF FF
4410.405359 1     0CFFFE03x        Rx    d 8 8E 84 9F 40 50 1D 7F E5
4410.406727 1     0CF00400x        Rx    d 8 F1 FF A2 EE 41 FF FF FF
4410.407017 1     18F00128x        Rx    d 8 FF FF FF CF FF FF FF FF
4410.407297 1     18F02300x        Rx    d 8 4B 0D F2 FF FF 70 FF FF
4410.411817 1     18EFFF22x        Rx    d 8 F0 09 FF FF 0F FF FF FF
4410.411988 2     0CEFFFC5x        Rx    d 8 F8 01 01 65 04 00 00 18
4410.412098 1     0CFE1122x        Rx    d 8 D4 26 F1 3F FF FF FF FF
4410.412400 1     0CFFFF22x        Rx    d 8 3E D7 D7 FB FB FC FF FF
4410.412700 1     0CFFFF22x        Rx    d 8 40 E1 E1 FB FB FC FF FF
4410.412744 2     0CF004F0x        Rx    d 8 F1 FF A2 EE 41 FF FF FF
4410.412992 1     0CFFFF22x        Rx    d 8 41 B9 B9 FB FB FC FF FF
4410.413288 1     0CFE1422x        Rx    d 8 5A A0 F2 3F FF FF FF FF
4410.413329 2     18FFFAF0x        Rx    d 8 02 40 00 40 40 3F FF FF
4410.413587 1     0CFE1522x        Rx    d 8 5F 9B F2 3F FF FF FF FF
4410.413897 2     0CFE11F0x        Rx    d 8 D4 26 F1 3F FF FF FF FF
4410.414101 1     18FFF819x        Rx    d 8 04 FF FF FF FF FF FF FF
4410.414399 1     04EF0006x        Rx    d 8 64 15 16 F0 6C 23 D8 21
4410.414473 2     0CFFFFF0x        Rx    d 8 55 7D 7D 7D 7D 7D FF FF
4410.414694 1     18FFF819x        Rx    d 8 06 FF FF FF FF FF FF FF
4410.414986 1     18FFFB06x        Rx    d 8 00 05 A1 C8 FF FF FF FF
4410.415041 2     0CFFFB1Ex        Rx    d 8 00 3F 11 68 04 89 F0 FF
4410.415270 1     08FE6E47x        Rx    d 8 FF FF FF FF 5E 08 FF FF
4410.415552 1     0CFFFF31x        Rx    d 8 5E 0D FC 3F FF 4F F0 FF
4410.415637 2     18001E1Ex        Rx    d 8 00 40 00 00 00 00 00 00
4410.415836 1     18FFF347x        Rx    d 8 23 3D 69 FF FF FF FF FF
4410.416114 1     0CFFFE05x        Rx    d 8 8B 84 FF F1 B0 04 41 3C
4410.416398 1     18FEF147x        Rx    d 8 FF 5E 08 FF FF FF FF FF
4410.416690 1     0CEFFF05x        Rx    d 8 6E FF FF 00 FF FF FF FF
4410.416882 2     18FFFBF0x        Rx    d 8 00 05 A1 C8 FF FF FF FF
4410.416982 1     0CF00300x        Rx    d 8 FF FE 2E FF FF FF FF FF
4410.417271 1     0CEFFF00x        Rx    d 8 64 06 77 7F FF FF FF FF
4410.417555 1     0CF00400x        Rx    d 8 F1 FF A2 CA 41 FF FF FF
4410.417831 1     18EFFF00x        Rx    d 8 64 10 0F 0F 34 28 4F 3E
4410.418116 1     18FEF600x        Rx    d 8 FF 2F 65 FF 33 FF FF FF
4410.418414 1     18FFF819x        Rx    d 8 07 FF FF FF FF FF FF FF
4410.418700 1     18FFFA05x        Rx    d 8 02 5D F1 84 C0 FF FF FF
4410.419012 1     18FFFE05x        Rx    d 8 10 FF FF FF FF FF FF FF
4410.419328 1     18FFF805x        Rx    d 8 20 FF FF FF FF FF FF FF
4410.422790 2     0CFE14F0x        Rx    d 8 5A A0 F2 3F FF FF FF FF
4410.422956 1     0CFFFF8Cx        Rx    d 8 55 7D 7D 7D 7D 7D FF FF
4410.423256 1     0CFFFF8Cx        Rx    d 8 97 FF FF FF FF FF FF FF
4410.423367 2     0CCBF7C5x        Rx    d 8 13 00 0C 00 00 00 00 00
4410.423939 2     0CFE15F0x        Rx    d 8 5F 9B F2 3F FF FF FF FF
4410.425266 1     18FEF803x        Rx    d 8 FF FF FF 79 E0 29 FF FF
4410.425549 1     0CFFFE03x        Rx    d 8 8E 84 9F 40 60 1D 7F E4
4410.425691 2     0CFFFA23x        Rx    d 8 00 07 AB FF FF FF FF FF
4410.425839 1     18EFFF07x        Rx    d 8 F0 0D FF FF FF FF FF FF
4410.426259 2     18FEF8F0x        Rx    d 8 FF FF FF 79 E0 29 FF FF
4410.427043 1     0CF00400x        Rx    d 8 F1 FF A2 E2 41 FF FF FF
4410.427175 2     18EA1C2Ax        Rx    d 8 09 FF 00 FF FF FF FF FF
4410.429968 2     18FF02CCx        Rx    d 5 02 00 00 00 02 FF FF FF
4410.430915 1     0CACFF13x        Rx    d 8 79 7D 10 FF FF FF FF FF
4410.431201 1     18FFFA13x        Rx    d 8 02 62 FF FF FF FF 01 04
4410.431884 2     18FFFAF0x        Rx    d 8 02 62 FF FF FF FF 01 04
4410.432351 1     0CFFFAF0x        Rx    d 8 00 07 AB FF FF FF FF FF
4410.432684 2     0CACFFF0x        Rx    d 8 79 7D 10 FF FF FF FF FF
4410.433249 2     0CFE49F0x        Rx    d 8 B2 08 03 36 84 01 FF FF
4410.434550 1     04EF0006x        Rx    d 8 64 15 17 F0 A0 23 D8 21
4410.435092 1     08FE6E47x        Rx    d 8 FF FF FF FF 60 08 FF FF
4410.435380 1     18F00106x        Rx    d 8 FF FF FF FF 00 FF FF FF
4410.435489 2     0CFFFA23x        Rx    d 8 00 06 B3 FF FF FF FF FF
4410.435658 1     0CFFFE05x        Rx    d 8 8B 84 FF F1 B0 04 41 3D
4410.435948 1     18F00503x        Rx    d 8 84 FF FF FF FF FF FF FF
4410.436240 1     0CEFFF05x        Rx    d 8 6E FF FF 00 FF FF FF FF
4410.436870 1     0CF00300x        Rx    d 8 FF FE 2E FF FF FF FF FF
4410.437161 1     0CEFFF00x        Rx    d 8 64 06 6B 7F FF FF FF FF
4410.437447 1     0CF00400x        Rx    d 8 F1 FF A2 DA 41 FF FF FF
4410.438355 1     1CE72631x        Rx    d 8 A8 EA 03 FF 00 00 00 00
4410.438921 1     1CE72606x        Rx    d 8 A8 11 04 FF 24 00 00 00
4410.439029 2     18FF091Cx        Rx    d 8 47 52 36 FF FF FF FF FF
4410.442360 1     0CFFFAF0x        Rx    d 8 00 06 B3 FF FF FF FF FF
4410.442970 1     0CFFFF8Cx        Rx    d 8 99 FF FF FF FF FF FF FF
4410.443258 1     18EFFF8Cx        Rx    d 8 F0 0C FF FF 88 8F FF FF
4410.443552 1     0CFFF88Cx        Rx    d 8 92 FF FF FF FF FF FF FF
4410.443826 1     18EFFF8Bx        Rx    d 8 F4 31 88 88 81 51 78 FF
4410.444766 1     0DEF0503x        Rx    d 8 01 00 FF FF FF FF FF F5
4410.445348 1     0CFFFE03x        Rx    d 8 8E 84 9F 40 60 1D 7F E5
4410.446858 1     0CF00400x        Rx    d 8 F1 FF A2 DC 41 FF FF FF
4410.448435 1     1CFFFE28x        Rx    d 8 A7 50 01 00 03 08 00 00
4410.451465 1     1CE63126x        Rx    d 8 A8 EA 03 00 00 00 00 00
4410.451751 1     0CFE4523x        Rx    d 8 0C 4F 78 FF FF FF FF FF
4410.452035 1     18FFFA22x        Rx    d 8 02 45 F6 7D FF 7D FF C0
4410.452321 1     0CFE1222x        Rx    d 8 7D 7D F0 3F FF FF FF FF
4410.452603 1     1CE60626x        Rx    d 8 A8 11 04 00 24 00 00 00
4410.452770 2     0CFE45F0x        Rx    d 8 0C 4F 78 FF FF FF FF FF
4410.452889 1     0CFE1322x        Rx    d 8 7D 7D F0 3F FF FF FF FF
4410.453174 1     18EFFF37x        Rx    d 8 F0 09 FF FF FF 00 F0 FF
4410.453346 2     0CFFFFF0x        Rx    d 8 55 7D 7D 7D 7D 7D FF FF
4410.453906 2     0CFE48F0x        Rx    d 8 14 09 23 40 84 01 05 F5
4410.454472 1     04EF0006x        Rx    d 8 64 15 18 F0 6C 23 D8 21
4410.454719 2     18001E1Ex        Rx    d 8 00 40 00 00 00 00 00 00
4410.455152 1     08FE6E47x        Rx    d 8 FF FF FF FF 5E 08 FF FF
4410.455434 1     0CFFFF31x        Rx    d 8 5E 0D FC 3F FF 4F F0 FF
4410.455447 2     18FFFAF0x        Rx    d 8 02 45 F6 7D FF 7D FF C0
4410.455746 1     0CFE0A05x        Rx    d 8 FF FF FF FF FF FF FF FF
4410.456046 1     0CF02205x        Rx    d 8 12 09 FF FF FF FF FF 21
4410.456337 1     0DEF0607x        Rx    d 8 01 31 B0 43 FF FF FF F0
4410.456615 1     0CFFFE05x        Rx    d 8 8B 84 FF F1 B0 04 41 3C
4410.456913 1     0CF00300x        Rx    d 8 FF FE 2E FF FF FF FF FF
4410.457199 1     0CEFFF00x        Rx    d 8 64 06 72 7F FF FF FF FF
4410.457491 1     0CEFFF05x        Rx    d 8 6E FF FF 00 FF FF FF FF
4410.457776 1     0CF00400x        Rx    d 8 F1 FF A2 E2 41 FF FF FF
4410.458056 1     18F02300x        Rx    d 8 4B 0D F2 FF FF 70 FF FF
4410.462495 2     0CFE12F0x        Rx    d 8 7D 7D F0 3F FF FF FF FF
4410.462984 1     0CFFFE8Cx        Rx    d 8 63 FF FF FD FF FF FF FF
4410.463088 2     0CFE13F0x        Rx    d 8 7D 7D F0 3F FF FF FF FF
4410.463278 1     0CFFFE8Cx        Rx    d 8 8D FB FB 7D C0 FF FF FF
4410.463570 1     0CFFFE8Cx        Rx    d 8 8C FF 22 FB FB F0 FF 1F
4410.463676 2     0CFE0AF0x        Rx    d 8 FF FF FF FF FF FF FF FF
4410.463864 1     0CFFFF8Cx        Rx    d 8 55 7D 7D 7D 7D 7D FF FF
4410.464164 1     0CFFFF8Cx        Rx    d 8 97 FF FF FF FF FF FF FF
4410.464244 2     0CF022F0x        Rx    d 8 12 09 FF FF FF FF FF 21
4410.464560 1     0CFFFEC6x        Rx    d 8 EA C3 09 FF FF 00 FF FF
4410.465235 1     18EFFF47x        Rx    d 8 F0 09 FF FF FF FF FF 00
4410.465517 1     0CFFFE03x        Rx    d 8 8E 84 9F 40 60 1D 7F E4
4410.467027 1     0CF00400x        Rx    d 8 F1 FF A2 EC 41 FF FF FF
4410.467313 1     18FEDF00x        Rx    d 8 89 EA 41 FF FF FF FF 05
4410.467604 1     18FFFA00x        Rx    d 8 02 2C 00 00 08 0C 00 80
4410.470652 2     1CE726C5x        Rx    d 8 AF 9A 08 05 98 0B 00 00
4410.472804 1     18FFFAF0x        Rx    d 8 02 40 00 40 40 3F FF FF
4410.472833 2     0CFFFFF0x        Rx    d 8 59 F6 7D FF FF FF FF FF
4410.474700 1     04EF0006x        Rx    d 8 64 15 19 F0 5D 23 D8 21
4410.475194 1     08FE6E47x        Rx    d 8 FF FF FF FF 5E 08 FF FF
4410.475480 1     0CFFFE06x        Rx    d 8 5C B0 43 B0 43 FF FF FF
4410.475768 1     18EFFF05x        Rx    d 8 F0 0D FF FF F0 0F FF FF
4410.476061 1     0CFE4831x        Rx    d 8 FF FF FF FF FF FF FF F7
4410.476355 1     18FFFA07x        Rx    d 8 00 0F FF FF 13 F1 FF FF
4410.476633 1     0CFFFE05x        Rx    d 8 8B 84 FF F1 B0 04 41 3D
4410.476915 1     18FFFE05x        Rx    d 8 6F 00 00 84 CF 2F FF 10
4410.477207 1     0CEFFF05x        Rx    d 8 6E FF FF 00 FF FF FF FF
4410.477497 1     0CEFFF00x        Rx    d 8 64 06 75 7F FF FF FF FF
4410.477788 1     0CF00300x        Rx    d 8 FF FE 30 FF FF FF FF FF
4410.478072 1     0CF00400x        Rx    d 8 F1 FF A2 E2 41 FF FF FF
4410.478364 1     18FEF200x        Rx    d 8 59 03 FF FF FF FF FF FF
4410.478840 1     18FFFF23x        Rx    d 8 27 01 FD FF FF FF FF FF
4410.479105 2     18FEF2F0x        Rx    d 8 59 03 FF FF FF FF FF FF
4410.479697 2     18FFFFF0x        Rx    d 8 27 01 FD FF FF FF FF FF
4410.482916 1     0CFFFF8Cx        Rx    d 8 4D FF FF FA FD FF FF FF
4410.483189 2     1CE6C526x        Rx    d 8 AF 9A 08 05 00 FF FF FF
4410.483216 1     0CFFFE8Cx        Rx    d 8 63 FF FF FC FF FF FF FF
4410.483516 1     0CFFFF8Cx        Rx    d 8 99 FF FF FF FF FF FF FF
4410.483819 1     0CFFF88Cx        Rx    d 8 92 FF FF FF FF FF FF FF
4410.485229 1     0CFE4947x        Rx    d 8 F0 08 FF FF FF FF FF FF
4410.485545 1     0CFFFE03x        Rx    d 8 8E 84 9F 40 60 1D 7F E5
4410.485845 1     0CFE4307x        Rx    d 8 D0 22 FF FF 51 F3 FF FF
4410.486694 2     1CE72623x        Rx    d 8 FF FF FF FF FF FF FF FF
4410.487093 1     0CF00400x        Rx    d 8 F1 FF A3 F4 41 FF FF FF
4410.487274 2     1CE7261Fx        Rx    d 8 FF FF FF FF FF FF FF FF
4410.488711 1     18F00128x        Rx    d 8 FF FF FF CF FF FF FF FF
4410.491951 1     0CFE1122x        Rx    d 8 D4 26 F1 3F FF FF FF FF
4410.492242 1     18FF3595x        Rx    d 8 C3 FF FF FF FF FF FF FF
4410.492526 1     0CFE1522x        Rx    d 8 5F 9B F2 3F FF FF FF FF
4410.492774 2     0CFE43F0x        Rx    d 8 D0 22 FF FF 51 F3 FF FF
4410.492814 1     18FF3695x        Rx    d 8 C3 FF FF FF FF FF FF FF
4410.493102 1     18EFFFF0x        Rx    d 8 F0 09 FF FF F0 FF FF FF
4410.493342 2     0CFE11F0x        Rx    d 8 D4 26 F1 3F FF FF FF FF
4410.493394 1     18FFF895x        Rx    d 8 0A FF FF FF FF FF FF FF
4410.493919 2     0CFFFFF0x        Rx    d 8 55 7D 7D 7D 7D 7D FF FF
4410.494109 1     18FFF819x        Rx    d 8 04 FF FF FF FF FF FF FF
4410.494415 1     18FFF819x        Rx    d 8 05 1A 16 34 00 00 00 00
4410.494689 1     04EF0006x        Rx    d 8 64 15 1A F0 5D 23 D8 21
4410.494731 2     18001E1Ex        Rx    d 8 00 40 00 00 00 00 00 00
4410.494983 1     18FFF819x        Rx    d 8 06 FF FF FF FF FF FF FF
4410.495270 1     08FE6E47x        Rx    d 8 FF FF FF FF 60 08 FF FF
4410.495556 1     0CFFFE91x        Rx    d 8 83 FD FF FF CC FF FF FF
4410.495842 1     18EFFF06x        Rx    d 8 F0 0D FF FF 0F FF FF FF
4410.496126 1     0CFFFF31x        Rx    d 8 5C F1 FF 00 00 00 FF FC
4410.496424 1     18FFF819x        Rx    d 8 07 FF FF FF FF FF FF FF
4410.496707 1     0CFFFF31x        Rx    d 8 5E 0D FC 3F FF 4F F0 FF
4410.496997 1     0CF00300x        Rx    d 8 FF FE 2F FF FF FF FF FF
4410.497285 1     0CEFFF00x        Rx    d 8 64 06 8F 7F FF FF FF FF
4410.497573 1     0CF00400x        Rx    d 8 F1 FF A3 E8 41 FF FF FF
4410.497851 1     0CFFFE05x        Rx    d 8 8B 84 FF F1 B0 04 41 3C
4410.498142 1     18EF0600x        Rx    d 8 64 0E 3E 00 FF FF FF FF
4410.498434 1     0CEFFF05x        Rx    d 8 6E FF FF 00 FF FF FF FF
4410.498720 1     18FEF500x        Rx    d 8 C2 FF FF FF FF 49 FF FF
4410.499016 1     18FFF819x        Rx    d 8 08 FF FF FF FF FF FF FF
4410.500904 1     18FFFF13x        Rx    d 8 76 51 00 2B 42 FF 04 FF
4410.501672 2     18FFFFF0x        Rx    d 8 76 51 00 2B 42 FF 04 FF
4410.502500 2     0CFE15F0x        Rx    d 8 5F 9B F2 3F FF FF FF FF
4410.502996 1     0CFFFF8Cx        Rx    d 8 55 7D 7D 7D 7D 7D FF FF
4410.503064 2     0CCBF7C5x        Rx    d 8 13 00 0B 00 D1 20 00 00
4410.503297 1     0CFFFF8Cx        Rx    d 8 97 FF FF FF FF FF FF FF
4410.503628 2     0CCBF7C5x        Rx    d 8 23 00 0B 00 D1 20 00 00
4410.504803 1     0DEF0603x        Rx    d 8 01 01 FF FF FF FF FF F5
4410.505473 1     0CFFFE03x        Rx    d 8 8E 84 9F 40 70 1D 7F E4
4410.506439 1     18FFF895x        Rx    d 8 30 6D 6D 5C 10 00 3F 1F
4410.506817 1     0CF00400x        Rx    d 8 F1 FF A3 FA 41 FF FF FF
4410.507098 1     18F02300x        Rx    d 8 4B 0D F2 FF FF 70 FF FF
4410.509068 2     0CFEF31Cx        Rx    d 8 95 CF 31 96 07 B3 52 45
4410.509520 2     14EF801Cx        Rx    d 5 3F 11 E4 7F 64 FF FF FF
4410.510081 2     0CFEE61Cx        Rx    d 8 B8 00 16 05 24 20 FF F9
4410.510677 2     0CFEE81Cx        Rx    d 8 9E 5A 5F 08 B7 63 01 58
4410.511273 2     0CFFFF1Cx        Rx    d 8 51 03 02 12 0B 07 08 01
4410.511841 2     0CFFFF1Cx        Rx    d 8 52 25 14 A5 28 44 C5 1C
4410.512417 2     0CFFFF1Cx        Rx    d 8 53 01 91 7A 04 55 41 54
4410.512500 1     0CFEE8F0x        Rx    d 8 9E 5A 5F 08 B7 63 01 58
4410.512985 2     0CF004F0x        Rx    d 8 F1 FF A3 FA 41 FF FF FF
4410.513569 2     0CFFFF1Cx        Rx    d 8 A0 04 FF FF FF FF FF FF
4410.514154 2     18FFFAF0x        Rx    d 8 02 40 00 40 40 3F FF FF
4410.514542 1     04EF0006x        Rx    d 8 64 15 1B F0 3D 23 D8 21
4410.514702 2     0CFFFF1Cx        Rx    d 8 54 2F 01 0A A2 EA 7D 4D
4410.515060 1     18FFF347x        Rx    d 8 23 3D 69 FF FF FF FF FF
4410.515306 2     0CFFFF1Cx        Rx    d 8 E3 FF FF FF FC 01 FF F1
4410.515342 1     08FE6E47x        Rx    d 8 FF FF FF FF 65 08 FF FF
4410.515620 1     0CFFFE05x        Rx    d 8 8B 84 FF F1 B0 04 41 3D
4410.515902 2     0CFFFF1Cx        Rx    d 8 E1 DF 02 64 7F 64 46 00
4410.515904 1     18FEF147x        Rx    d 8 FF 65 08 FF FF FF FF FF
4410.516197 1     0CEFFF05x        Rx    d 8 6E FF FF 00 FF FF FF FF
4410.516485 1     18FFFB06x        Rx    d 8 00 05 A2 C8 FF FF FF FF
4410.516777 1     18FFFF07x        Rx    d 8 27 00 FD FF FF FF FF FF
4410.517067 1     0CEFFF00x        Rx    d 8 64 06 7D 7F FF FF FF FF
4410.517359 1     0CF00300x        Rx    d 8 FF FE 2E FF FF FF FF FF
4410.517645 1     0CF00400x        Rx    d 8 F1 FF A3 F6 41 FF FF FF
4410.517678 2     18FFFBF0x        Rx    d 8 00 05 A2 C8 FF FF FF FF
4410.517926 1     18EFFF00x        Rx    d 8 64 10 0F 0F 28 28 4F 3E
4410.518220 1     18FFFA07x        Rx    d 8 00 14 FF FF FF FF FF FF
4410.518266 2     18FFFFF0x        Rx    d 8 27 00 FD FF FF FF FF FF
4410.518514 1     18FFFE05x        Rx    d 8 10 FF FF FF FF FF FF FF
4410.518830 1     18FFF805x        Rx    d 8 20 FF FF FF FF FF FF FF
4410.519132 1     1CE72631x        Rx    d 8 A8 EA 03 FF 00 00 00 00
4410.519430 1     1CE72606x        Rx    d 8 A8 11 04 FF 25 00 00 00
4410.522403 1     0CFFFFF0x        Rx    d 8 E1 DF 02 64 7F 64 46 00
4410.522935 1     0CFFFF8Cx        Rx    d 8 99 FF FF FF FF FF FF FF
4410.523237 1     0CFFF88Cx        Rx    d 8 92 FF FF FF FF FF FF FF
4410.525209 1     18FEF803x        Rx    d 8 FF FF FF 7A E0 29 FF FF
4410.525419 2     0CFFFA23x        Rx    d 8 00 07 AB FF FF FF FF FF
4410.525491 1     0CFFFE03x        Rx    d 8 8E 84 9F 40 70 1D 7F E5
4410.525781 1     18EFFF07x        Rx    d 8 F0 0D FF FF FF FF FF FF
4410.525991 2     18FEF8F0x        Rx    d 8 FF FF FF 7A E0 29 FF FF
4410.526061 1     1CE63126x        Rx    d 8 A8 EA 03 00 00 00 00 00
4410.526878 1     0CF00400x        Rx    d 8 F1 FF A2 F0 41 FF FF FF
4410.527555 2     0CFFFF2Ax        Rx    d 8 77 15 10 5A 7B 62 90 FF
4410.528131 2     18FFFF2Ax        Rx    d 8 92 FF 1A 3E FC FF FF FF
4410.528628 1     18FFFFF0x        Rx    d 8 92 FF 1A 3E FC FF FF FF
4410.530918 1     0CACFF13x        Rx    d 8 7F 7D 10 FF FF FF FF FF
4410.531204 1     18FFFA13x        Rx    d 8 02 62 FF FF FF FF 01 04
4410.531624 1     0CFE4523x        Rx    d 8 0C 4F 78 FF FF FF FF FF
4410.531899 2     18FFFAF0x        Rx    d 8 02 62 FF FF FF FF 01 04
4410.531910 1     18EFFF22x        Rx    d 8 F0 09 FF FF 0F FF FF FF
4410.532197 1     0CFE1222x        Rx    d 8 7D 7D F0 3F FF FF FF FF
4410.532489 1     0CFFFAF0x        Rx    d 8 00 07 AB FF FF FF FF FF
4410.532775 1     0CFE1322x        Rx    d 8 7D 7D F0 3F FF FF FF FF
4410.533000 2     0CACFFF0x        Rx    d 8 7F 7D 10 FF FF FF FF FF
4410.533051 1     0CFFFFF0x        Rx    d 8 77 15 10 5A 7B 62 90 FF
4410.533335 1     0CFE1422x        Rx    d 8 5A A0 F2 3F FF FF FF FF
4410.533576 2     0CFE45F0x        Rx    d 8 0C 4F 78 FF FF FF FF FF
4410.533624 1     18FE4095x        Rx    d 8 0F 0F FF FF FF FF FF FF
4410.533910 1     1CFFFB37x        Rx    d 8 F1 10 CF FC FF FF FF FF
4410.534156 2     0CFE12F0x        Rx    d 8 7D 7D F0 3F FF FF FF FF
4410.534204 1     18FFFE19x        Rx    d 8 05 F5 FF FF FF FF FF FF
4410.534478 1     04EF0006x        Rx    d 8 64 15 1C F0 2B 23 D8 21
4410.534732 2     0CFFFFF0x        Rx    d 8 55 7D 7D 7D 7D 7D FF FF
4410.534765 1     18D0FF37x        Rx    d 8 E1 00 FF FF FF FF FF FF
4410.535053 1     18F00106x        Rx    d 8 FF FF FF FF 00 FF FF FF
4410.535289 2     0CFE49F0x        Rx    d 8 F0 08 E2 36 84 01 FF FF
4410.535337 1     08FE6E47x        Rx    d 8 FF FF FF FF 62 08 FF FF
4410.535619 1     0CFFFF31x        Rx    d 8 5E 0D FC 3F FF 4F F0 FF
4410.535873 2     0CFFFA23x        Rx    d 8 00 06 B3 FF FF FF FF FF
4410.535911 1     18FFFA03x        Rx    d 8 00 14 FF FF FF FF FF FF
4410.536189 1     0CFFFE05x        Rx    d 8 8B 84 FF F1 B0 04 41 3C
4410.536325 2     14EF801Cx        Rx    d 5 3F 11 65 01 0A FF FF FF
4410.536479 1     18F00503x        Rx    d 8 84 FF FF FF FF FF FF FF
4410.536771 1     0CEFFF05x        Rx    d 8 6E FF FF 00 FF FF FF FF
4410.536921 2     18001E1Ex        Rx    d 8 00 40 00 00 00 00 00 00
4410.537063 1     0CF00300x        Rx    d 8 FF FE 2E FF FF FF FF FF
4410.537352 1     0CEFFF00x        Rx    d 8 64 06 6A 7F FF FF FF FF
4410.537501 2     18D0FFF0x        Rx    d 8 E1 00 FF FF FF FF FF FF
4410.537636 1     0CF00400x        Rx    d 8 F1 FF A2 EC 41 FF FF FF
4410.537914 1     18FE6900x        Rx    d 8 C8 29 E0 2C FF FF 12 27
4410.538074 2     18FFFF1Cx        Rx    d 8 E0 FD 0A F5 FF FF FF FF
4410.538196 1     1CE60626x        Rx    d 8 A8 11 04 00 25 00 00 00
4410.538569 1     18FFFFF0x        Rx    d 8 E0 FD 0A F5 FF FF FF FF
4410.542287 1     0CFFFAF0x        Rx    d 8 00 06 B3 FF FF FF FF FF
4410.542506 2     0CFE13F0x        Rx    d 8 7D 7D F0 3F FF FF FF FF
4410.543007 1     18EFFF8Cx        Rx    d 8 F0 0C FF FF 88 8F FF FF
4410.543082 2     0CFE14F0x        Rx    d 8 5A A0 F2 3F FF FF FF FF
4410.543293 1     0CFFFF8Cx        Rx    d 8 55 7D 7D 7D 7D 7D FF FF
4410.543567 1     18EFFF8Bx        Rx    d 8 F4 31 88 88 81 51 78 FF
4410.543860 1     0CFFFF8Cx        Rx    d 8 97 FF FF FF FF FF FF FF
4410.543951 2     19EFE1C5x        Rx    d 8 4A B0 8D D9 77 44 C0 00
4410.545164 1     0CFE0A05x        Rx    d 8 69 FF FF FF FF FF FF FF
4410.545444 1     0CFFFE03x        Rx    d 8 8E 84 9F 40 78 1D 7F E4
4410.546840 1     0CF00400x        Rx    d 8 F1 FF A2 E6 41 FF FF FF
4410.552499 2     0CFE0AF0x        Rx    d 8 69 FF FF FF FF FF FF FF
4410.552584 1     18EFFF37x        Rx    d 8 F0 09 FF FF FF 00 F0 FF
4410.553055 2     0CFE48F0x        Rx    d 8 1C 09 0C 41 84 01 05 F5
4410.554529 1     04EF0006x        Rx    d 8 64 15 1D F0 3D 23 D8 21
4410.555045 1     18FF5B32x        Rx    d 8 F5 FF FF FF FF FF FF FF
4410.555327 1     08FE6E47x        Rx    d 8 FF FF FF FF 65 08 FF FF
4410.555621 1     0CFE0A05x        Rx    d 8 FF FF FF FF FF FF FF FF
4410.555905 1     0CFE6C47x        Rx    d 8 FF FF FF FF FF FF 65 08
4410.556191 1     0CF02205x        Rx    d 8 15 09 FF FF FF FF FF 21
4410.556485 1     18FFFF47x        Rx    d 8 23 CF FF FF FF FF FF FF
4410.556763 1     0CFFFE05x        Rx    d 8 8B 84 FF F1 B0 04 41 3D
4410.557053 1     0CEFFF00x        Rx    d 8 64 06 76 7F FF FF FF FF
4410.557346 1     0CEFFF05x        Rx    d 8 6E FF FF 00 FF FF FF FF
4410.557638 1     0CF00300x        Rx    d 8 FF FE 2E FF FF FF FF FF
4410.557924 1     0CF00400x        Rx    d 8 F1 FF A2 FE 41 FF FF FF
4410.558214 1     0DEF0607x        Rx    d 8 01 31 B0 43 FF FF FF F0
4410.558494 1     18F02300x        Rx    d 8 4B 0D F2 FF FF 70 FF FF
4410.562628 2     0CFE0AF0x        Rx    d 8 FF FF FF FF FF FF FF FF
4410.562874 1     0CFFFE8Cx        Rx    d 8 8D FB FB 7D C0 FF FF FF
4410.563174 1     0CFFFF8Cx        Rx    d 8 99 FF FF FF FF FF FF FF
4410.563196 2     0CF022F0x        Rx    d 8 15 09 FF FF FF FF FF 21
4410.563465 1     0CFFFE8Cx        Rx    d 8 8C FF 22 FB FB F0 FF 1F
4410.563767 1     0CFFF88Cx        Rx    d 8 92 FF FF FF FF FF FF FF
4410.564555 1     0CFFFEC6x        Rx    d 8 EA C3 09 FF FF 04 FF FF
4410.565209 1     18EFFF47x        Rx    d 8 F0 09 FF FF FF FF FF 00
4410.565491 1     0CFFFE03x        Rx    d 8 8E 84 9F 40 70 1D 7F E5
4410.565779 1     18FFFE47x        Rx    d 8 16 FF 2A FF FF FF FF FF
4410.566829 1     0CF00400x        Rx    d 8 F1 FF A2 EC 41 FF FF FF
4410.567116 1     18FEDF00x        Rx    d 8 89 EE 41 FF FF FF FF 05
4410.572792 2     18FFFB26x        Rx    d 8 00 41 01 07 01 7A F9 FF
4410.572914 1     18FFFAF0x        Rx    d 8 02 40 00 40 40 3F FF FF
4410.573369 2     0CFFFFF0x        Rx    d 8 55 7D 7D 7D 7D 7D FF FF
4410.573929 2     18FFFB26x        Rx    d 8 00 41 02 0E 3C 12 59 16
4410.574489 2     18FFFB26x        Rx    d 8 00 41 03 D1 D3 31 96 7A
4410.574540 1     04EF0006x        Rx    d 8 64 15 1E F0 15 23 D8 21
4410.575085 2     18001E1Ex        Rx    d 8 00 40 00 00 00 00 00 00
4410.575087 1     0CFFFE06x        Rx    d 8 5C B0 43 B0 43 FF FF FF
4410.575371 1     08FE6E47x        Rx    d 8 FF FF FF FF 62 08 FF FF
4410.575641 2     18FFFB26x        Rx    d 8 00 41 04 1B B4 52 45 48
4410.575653 1     0CFFFF31x        Rx    d 8 5E 0D FC 3F FF 4F F0 FF
4410.575941 1     18EFFF05x        Rx    d 8 F0 0D FF FF F0 0F FF FF
4410.576205 2     18FFFB26x        Rx    d 8 00 41 05 22 63 5E 08 F0
4410.576233 1     0CFE4831x        Rx    d 8 FF FF FF FF FF FF FF F7
4410.576517 1     18FFF819x        Rx    d 8 05 1A 16 34 00 00 00 00
4410.576781 2     18FFFB26x        Rx    d 8 00 41 06 A8 64 FF FF FF
4410.576810 1     0CF00300x        Rx    d 8 FF FE 2E FF FF FF FF FF
4410.577100 1     0CEFFF00x        Rx    d 8 64 06 6B 7F FF FF FF FF
4410.577373 2     18FFFB26x        Rx    d 8 00 41 07 D0 01 FF FF FF
4410.577388 1     0CF00400x        Rx    d 8 F1 FF A2 FC 41 FF FF FF
4410.577666 1     0CFFFE05x        Rx    d 8 8B 84 FF F1 B0 04 41 3C
4410.577959 1     18FEF200x        Rx    d 8 50 03 FF FF FF FF FF FF
4410.578251 1     0CEFFF05x        Rx    d 8 6E FF FF 00 FF FF FF FF
4410.578547 1     18FFF819x        Rx    d 8 08 FF FF FF FF FF FF FF
4410.578705 2     18FEF2F0x        Rx    d 8 50 03 FF FF FF FF FF FF
4410.578839 1     18FFFA47x        Rx    d 8 02 49 FF FF FF FF FF FF
4410.579121 1     18FFFE05x        Rx    d 8 6F 00 00 84 CF 2F FF 10
4410.579413 1     18FFFA07x        Rx    d 8 00 0F FF FF 17 F1 FF FF
4410.582185 2     0CFFFEC5x        Rx    d 8 AD FF 40 CF 9B 00 FF FF
4410.582989 1     0CFFFF8Cx        Rx    d 8 4D FF FF FA FD FF FF FF
4410.583289 1     0CFFFE8Cx        Rx    d 8 63 FF FF FC FF FF FF FF
4410.583564 1     18EFFF8Bx        Rx    d 8 F0 08 88 FF 88 8F F3 88
4410.583850 1     0CFFFF8Cx        Rx    d 8 55 7D 7D 7D 7D 7D FF FF
4410.584152 1     0CFFFF8Cx        Rx    d 8 97 FF FF FF FF FF FF FF
4410.585298 1     1CFDDF47x        Rx    d 8 FF FF FF FF FF FF FF FF
4410.585582 1     0CFE4947x        Rx    d 8 F0 08 FF FF FF FF FF FF
4410.585876 1     0CFFFE03x        Rx    d 8 8E 84 9F 40 60 1D 7F E4
4410.586195 1     0CFE4307x        Rx    d 8 A0 22 FF FF 51 F3 FF FF
4410.586771 1     0CF00400x        Rx    d 8 F1 FF A2 DA 41 FF FF FF
4410.587059 1     1CFFF800x        Rx    d 8 73 15 00 FA F8 FF FF FF
4410.592625 1     18EFFFF0x        Rx    d 8 F0 09 FF FF F0 FF FF FF
4410.592650 2     0CFE43F0x        Rx    d 8 A0 22 FF FF 51 F3 FF FF
4410.594656 1     04EF0006x        Rx    d 8 64 15 1F F0 15 23 D8 21
4410.595164 1     18EFFF47x        Rx    d 8 F2 20 A8 0C 00 00 FF FF
4410.595448 1     08FE6E47x        Rx    d 8 FF FF FF FF 5E 08 FF FF
4410.595734 1     0CFFFE91x        Rx    d 8 83 FD FF FF CC FF FF FF
4410.596020 1     18EFFF06x        Rx    d 8 F0 0D FF FF 0F FF FF FF
4410.596302 1     0CFFFF31x        Rx    d 8 5C F1 FF 00 00 00 FF FD
4410.596589 1     18F00647x        Rx    d 8 FF CC FF FF FF FF FF FF
4410.596867 1     0CFFFE05x        Rx    d 8 8B 84 FF F1 B0 04 41 3D
4410.597157 1     0CF00300x        Rx    d 8 FF FE 2F FF FF FF FF FF
4410.597449 1     0CEFFF00x        Rx    d 8 64 06 70 7F FF FF FF FF
4410.597741 1     0CEFFF05x        Rx    d 8 6E FF FF 00 FF FF FF FF
4410.597874 2     18FFFFEEx        Rx    d 8 19 FC FF FF FF FF FF FF
4410.598025 1     0CF00400x        Rx    d 8 F1 FF A2 F4 41 FF FF FF
4410.598314 1     18EF0600x        Rx    d 8 64 0E 48 00 FF FF FF FF
4410.598734 1     1CE72631x        Rx    d 8 A8 EA 03 FF 00 00 00 00
4410.599234 1     1CE72606x        Rx    d 8 A8 11 04 FF 24 00 00 00
4410.602944 1     0CFFFE8Cx        Rx    d 8 63 FF FF FD FF FF FF FF
4410.603244 1     0CFFFF8Cx        Rx    d 8 99 FF FF FF FF FF FF FF
4410.603546 1     0CFFF88Cx        Rx    d 8 92 FF FF FF FF FF FF FF
4410.603766 2     1CEC261Cx        Rx    d 8 10 09 00 02 02 00 E7 00
4410.605236 1     18FEFC47x        Rx    d 8 FF 91 FF FF FF FF FF FF
4410.605518 1     0CFFFE03x        Rx    d 8 8E 84 9F 40 68 1D 7F E5
4410.605962 2     18FEFCF0x        Rx    d 8 FF 91 FF FF FF FF FF FF
4410.607024 1     0CF00400x        Rx    d 8 F1 FF A3 E8 41 FF FF FF
4410.607315 1     18F00128x        Rx    d 8 FF FF FF CF FF FF FF FF
4410.607597 1     18F02300x        Rx    d 8 4A 0D F2 FF FF 71 FF FF
4410.608501 1     1CFFFE28x        Rx    d 8 A7 50 03 00 68 08 00 00
4410.609382 2     1CEC1C26x        Rx    d 8 11 02 01 FF FF 00 E7 00
4410.609973 1     1CE63126x        Rx    d 8 A8 EA 03 00 00 00 00 00
4410.610711 1     1CE60626x        Rx    d 8 A8 11 04 00 24 00 00 00
4410.611698 1     18EFFF22x        Rx    d 8 F0 09 FF FF 0F FF FF FF
4410.611978 1     0CFE1122x        Rx    d 8 D4 26 F1 3F FF FF FF FF
4410.612179 2     0CEFFFC5x        Rx    d 8 F8 01 01 65 04 00 00 18
4410.612262 1     18FFFA22x        Rx    d 8 02 42 FA 7D 40 7D FF C0
4410.612546 1     0CFE1422x        Rx    d 8 5A A0 F2 3F FF FF FF FF
4410.612747 2     0CF004F0x        Rx    d 8 F1 FF A3 E8 41 FF FF FF
4410.612834 1     18FFFA22x        Rx    d 8 02 43 FA 7D 40 7D FF C0
4410.613116 1     0CFE1522x        Rx    d 8 5C 9E F2 3F FF FF FF FF
4410.613331 2     18FFFAF0x        Rx    d 8 02 40 00 40 40 3F FF FF
4410.613422 1     0CFFFF22x        Rx    d 8 59 FF FF FF FF FF FF FF
4410.613899 2     0CFE11F0x        Rx    d 8 D4 26 F1 3F FF FF FF FF
4410.614090 1     18FFF819x        Rx    d 8 03 FF FF FF FF FF FF FF
4410.614407 1     18FFF819x        Rx    d 8 04 FF FF FF FF FF FF FF
4410.614476 2     0CFFFFF0x        Rx    d 8 55 7D 7D 7D 7D 7D FF FF
4410.614685 1     04EF0006x        Rx    d 8 64 15 10 F0 2B 23 D8 21
4410.614979 1     18FFF819x        Rx    d 8 06 FF FF FF FF FF FF FF
4410.615044 2     0CFFFB1Ex        Rx    d 8 00 3F 11 66 04 89 F0 FF
4410.615265 1     08FE6E47x        Rx    d 8 FF FF FF FF 60 08 FF FF
4410.615548 1     0CFFFF31x        Rx    d 8 5E 0D FC 3F FF 4F F0 FF
4410.615640 2     18001E1Ex        Rx    d 8 00 40 00 00 00 00 00 00
4410.615832 1     18EF0006x        Rx    d 8 F2 31 FF FF CD F0 FF FF
4410.616110 1     0CFFFE05x        Rx    d 8 8B 84 FF F1 B0 04 41 3C
4410.616394 1     18FFF347x        Rx    d 8 23 3D 69 FF FF FF FF FF
4410.616686 1     0CEFFF05x        Rx    d 8 6E FF FF 00 FF FF FF FF
4410.616976 1     0CF00300x        Rx    d 8 FF FE 2F FF FF FF FF FF
4410.617265 1     0CEFFF00x        Rx    d 8 64 06 81 7F FF FF FF FF
4410.617555 1     0CF00400x        Rx    d 8 F1 FF A3 F0 41 FF FF FF
4410.617833 1     18EFFF00x        Rx    d 8 64 10 0F 0F 31 28 4F 3E
4410.618117 1     18FEF147x        Rx    d 8 FF 60 08 FF FF FF FF FF
4410.618416 1     18FFF819x        Rx    d 8 07 FF FF FF FF FF FF FF
4410.618708 1     18FFFB06x        Rx    d 8 00 05 A1 C8 FF FF FF FF
4410.618764 2     1CEB261Cx        Rx    d 8 01 B4 7D 23 86 23 00 00
4410.618986 1     18EFFF19x        Rx    d 8 F2 0D FF FF B0 26 50 26
4410.619280 1     18FFFE05x        Rx    d 8 10 FF FF FF FF FF FF FF
4410.619436 2     18FFFBF0x        Rx    d 8 00 05 A1 C8 FF FF FF FF
4410.619596 1     18FFF805x        Rx    d 8 20 FF FF FF FF FF FF FF
4410.620000 2     18EFFFF0x        Rx    d 8 F2 0D FF FF B0 26 50 26
4410.622492 2     0CFE14F0x        Rx    d 8 5A A0 F2 3F FF FF FF FF
4410.622954 1     0CFFFF8Cx        Rx    d 8 55 7D 7D 7D 7D 7D FF FF
4410.623061 2     0CFE15F0x        Rx    d 8 5C 9E F2 3F FF FF FF FF
4410.623254 1     0CFFFF8Cx        Rx    d 8 97 FF FF FF FF FF FF FF
4410.623781 2     1CEB261Cx        Rx    d 8 02 EB 00 FF FF FF FF FF
4410.625243 1     18FFFA47x        Rx    d 8 00 16 FF FF FF FF FF FF
4410.625523 1     0CFFFE03x        Rx    d 8 8E 84 9F 40 68 1D 7F E4
4410.625713 2     0CFFFA23x        Rx    d 8 00 07 AB FF FF FF FF FF
4410.625809 1     18FEF803x        Rx    d 8 FF FF FF 7A E0 29 FF FF
4410.626115 1     18EFFF07x        Rx    d 8 F0 0D FF FF FF FF FF FF
4410.626549 2     18FEF8F0x        Rx    d 8 FF FF FF 7A E0 29 FF FF
4410.626887 1     0CF00400x        Rx    d 8 F1 FF A2 F8 41 FF FF FF
4410.630881 2     1CEC1C26x        Rx    d 8 13 09 00 02 FF 00 E7 00
4410.630881 2     0J1939Tx        Rx    d 0 FF FF FF FF FF FF FF FF
4410.630917 1     0CACFF13x        Rx    d 8 81 7D 10 FF FF FF FF FF
4410.631204 1     18FFFA13x        Rx    d 8 02 62 FF FF FF FF 01 04
4410.631901 2     18FFFAF0x        Rx    d 8 02 62 FF FF FF FF 01 04
4410.632360 1     0CFFFAF0x        Rx    d 8 00 07 AB FF FF FF FF FF
4410.632445 2     1CE61C26x        Rx    d 8 B4 7D 23 86 23 00 FF FF
4410.633030 2     0CACFFF0x        Rx    d 8 81 7D 10 FF FF FF FF FF
4410.633590 2     0CFE49F0x        Rx    d 8 F0 08 C7 37 84 01 FF FF
4410.634170 2     0CFD02F0x        Rx    d 8 FF FF FF FF FF FF 00 FD
4410.634382 1     04EF0006x        Rx    d 8 64 15 11 F0 2B 23 D8 21
4410.634726 2     1CE7261Cx        Rx    d 8 A6 87 23 05 00 02 00 FF
4410.634930 1     18F00106x        Rx    d 8 FF FF FF FF 00 FF FF FF
4410.635216 1     08FE6E47x        Rx    d 8 FF FF FF FF 60 08 FF FF
4410.635467 2     0CFFFA23x        Rx    d 8 00 06 B3 FF FF FF FF FF
4410.635494 1     0CFFFE05x        Rx    d 8 8B 84 FF F1 B0 04 41 3D
4410.635784 1     18FEAE47x        Rx    d 8 FF FF FF FF FF FF FF FF
4410.636076 1     0CEFFF05x        Rx    d 8 6E FF FF 00 FF FF FF FF
4410.636367 1     18F00503x        Rx    d 8 84 FF FF FF FF FF FF FF
4410.636435 2     18FEAEF0x        Rx    d 8 FF FF FF FF FF FF FF FF
4410.636887 1     0CF00300x        Rx    d 8 FF FE 2D FF FF FF FF FF
4410.637173 1     0CEFFF00x        Rx    d 8 64 06 78 7F FF FF FF FF
4410.637461 1     0CF00400x        Rx    d 8 F1 FF A2 00 42 FF FF FF
4410.638815 2     14EF801Cx        Rx    d 3 3F 00 3B FF FF FF FF FF
4410.642366 1     0CFFFAF0x        Rx    d 8 00 06 B3 FF FF FF FF FF
4410.642387 2     1CE61C26x        Rx    d 8 A6 87 23 00 FF FF FF FF
4410.642966 1     0CFFFF8Cx        Rx    d 8 99 FF FF FF FF FF FF FF
4410.643254 1     18EFFF8Cx        Rx    d 8 F0 0C FF FF 88 8F FF FF
4410.643548 1     0CFFF88Cx        Rx    d 8 92 FF FF FF FF FF FF FF
4410.643771 2     1CEC261Cx        Rx    d 8 10 09 00 02 02 00 E7 00
4410.643823 1     18EFFF8Bx        Rx    d 8 F4 31 88 88 81 51 78 FF
4410.645311 1     0CFFFE03x        Rx    d 8 8E 84 9F 40 68 1D 7F E5
4410.645597 1     10EFFF07x        Rx    d 8 87 0F FF FF 30 02 00 00
4410.645891 1     0CFFFF07x        Rx    d 8 5D FF FF FF FF FF FF FF
4410.647001 1     0CF00400x        Rx    d 8 F1 FF A1 F0 41 FF FF FF
4410.647287 1     18FDB300x        Rx    d 8 FF FF A4 4E FF FF FF FF
4410.651825 1     0CFE4523x        Rx    d 8 0C 4F 78 FF FF FF FF FF
4410.652110 1     18FFFA22x        Rx    d 8 02 44 F6 7D FF 7D FF C0
4410.652195 2     1CEC1C26x        Rx    d 8 11 02 01 FF FF 00 E7 00
4410.652396 1     0CFE1222x        Rx    d 8 7D 7D F0 3F FF FF FF FF
4410.652696 1     0CFE1322x        Rx    d 8 7D 7D F0 3F FF FF FF FF
4410.652891 2     0CFE45F0x        Rx    d 8 0C 4F 78 FF FF FF FF FF
4410.652980 1     18EFFF37x        Rx    d 8 F0 09 FF FF FF 00 F0 FF
4410.653467 2     0CFFFFF0x        Rx    d 8 55 7D 7D 7D 7D 7D FF FF
4410.654032 2     0CFE48F0x        Rx    d 8 16 09 F4 41 84 01 05 F5
4410.654230 1     18FFF819x        Rx    d 8 30 FF 6A FF FF FF FF 1F
4410.654507 1     04EF0006x        Rx    d 8 64 15 12 F0 F8 22 D8 21
4410.654736 2     18001E1Ex        Rx    d 8 00 40 00 00 00 00 00 00
4410.655129 1     08FE6E47x        Rx    d 8 FF FF FF FF 62 08 FF FF
4410.655411 1     0CFFFF31x        Rx    d 8 5E 0D FC 3F FF 4F F0 FF
4410.655723 1     0CFE0A05x        Rx    d 8 FF FF FF FF FF FF FF FF
4410.656023 1     0CF02205x        Rx    d 8 18 09 FF FF FF FF FF 21
4410.656313 1     0CFFFE05x        Rx    d 8 8B 84 FF F1 B0 04 41 3C
4410.656603 1     0DEF0607x        Rx    d 8 01 31 B0 43 FF FF FF F0
4410.656895 1     0CEFFF05x        Rx    d 8 6E FF FF 00 FF FF FF FF
4410.656972 2     18FFFAF0x        Rx    d 8 02 44 F6 7D FF 7D FF C0
4410.657186 1     0CF00300x        Rx    d 8 FF FE 2D FF FF FF FF FF
4410.657472 1     0CF00400x        Rx    d 8 F1 FF A1 FA 41 FF FF FF
4410.657758 1     0CEFFF00x        Rx    d 8 64 06 53 7F FF FF FF FF
4410.658040 1     18F02300x        Rx    d 8 4A 0D F2 FF FF 71 FF FF
4410.658323 1     18FD7C00x        Rx    d 8 F8 80 F1 F7 03 CD 03 DF
4410.658912 2     1CEB261Cx        Rx    d 8 01 B4 7D 23 87 23 14 00
4410.662505 2     0CFE12F0x        Rx    d 8 7D 7D F0 3F FF FF FF FF
4410.662947 1     0CFFFE8Cx        Rx    d 8 8D FB FB 7D C0 FF FF FF
4410.663097 2     0CFE13F0x        Rx    d 8 7D 7D F0 3F FF FF FF FF
4410.663221 1     18B1FF06x        Rx    d 8 17 F6 90 56 28 DB 82 DD
4410.663503 1     0CFFFE8Cx        Rx    d 8 8C FF 22 FB FB F0 FF 1F
4410.663685 2     0CFE0AF0x        Rx    d 8 FF FF FF FF FF FF FF FF
4410.663783 1     18FFFA8Bx        Rx    d 8 01 0B 4A 66 07 F7 F4 FF
4410.664069 1     0CFFFF8Cx        Rx    d 8 55 7D 7D 7D 7D 7D FF FF
4410.664237 2     18B1FFF0x        Rx    d 8 17 F6 90 56 28 DB 82 DD
4410.664369 1     0CFFFF8Cx        Rx    d 8 97 FF FF FF FF FF FF FF
4410.664651 1     0CFFFEC6x        Rx    d 8 EA C3 09 FF FF 00 FF FF
4410.664805 2     0CF022F0x        Rx    d 8 18 09 FF FF FF FF FF 21
4410.665224 1     18FFFA47x        Rx    d 8 02 48 F1 01 C0 5F FF FF
4410.665382 2     1CEB261Cx        Rx    d 8 02 8C 00 FF FF FF FF FF
4410.665506 1     0CFFFE03x        Rx    d 8 8E 84 9F 40 60 1D 7F E4
4410.665792 1     18EFFF47x        Rx    d 8 F0 09 FF FF FF FF FF 00
4410.667150 1     0CF00400x        Rx    d 8 F1 FF A1 F4 41 FF FF FF
4410.667438 1     18FEDF00x        Rx    d 8 89 F2 41 FF FF FF FF 05
4410.669494 1     18B1FF07x        Rx    d 8 BF F4 C7 6A BB EF FC 47
4410.670154 2     18B1FFF0x        Rx    d 8 BF F4 C7 6A BB EF FC 47
4410.670738 2     18FE474Cx        Rx    d 8 FF FF FF FF FF FF FF FF
4410.672765 1     18FFFAF0x        Rx    d 8 02 40 00 40 40 3F FF FF
4410.673482 2     1CEC1C26x        Rx    d 8 13 09 00 02 FF 00 E7 00
4410.673482 2     0J1939Tx        Rx    d 0 FF FF FF FF FF FF FF FF
4410.674283 2     1CE61C26x        Rx    d 8 B4 7D 23 87 23 00 FF FF
4410.674789 1     04EF0006x        Rx    d 8 64 15 13 F0 15 23 D8 21
4410.675115 1     08FE6E47x        Rx    d 8 FF FF FF FF 60 08 FF FF
4410.675401 1     0CFFFE06x        Rx    d 8 5C B0 43 B0 43 FF FF FF
4410.675689 1     18EFFF05x        Rx    d 8 F0 0D FF FF F0 0F FF FF
4410.675981 1     0CFE4831x        Rx    d 8 FF FF FF FF FF FF FF F7
4410.676275 1     18FFFA07x        Rx    d 8 00 0F FF FF 13 F1 FF FF
4410.676554 1     0CFFFE05x        Rx    d 8 8B 84 FF F1 B0 04 41 3D
4410.676836 1     18FFFE05x        Rx    d 8 6F 00 00 84 CF 2F FF 10
4410.677128 1     0CEFFF05x        Rx    d 8 6E FF FF 00 FF FF FF FF
4410.677416 1     0CEFFF00x        Rx    d 8 64 06 5D 7F FF FF FF FF
4410.677706 1     0CF00300x        Rx    d 8 FF FE 2C FF FF FF FF FF
4410.677991 1     0CF00400x        Rx    d 8 F1 FF A1 06 42 FF FF FF
4410.678271 1     18EFFF00x        Rx    d 8 64 23 FE FA 00 FE 58 52
4410.678563 1     18FEF200x        Rx    d 8 41 03 FF FF FF FF FF FF
4410.678811 2     1CE7261Cx        Rx    d 8 A5 F0 22 F1 22 7A 7F FF
4410.678899 1     1CE72631x        Rx    d 8 A8 EA 03 FF 00 00 00 00
4410.679391 2     18FEF2F0x        Rx    d 8 41 03 FF FF FF FF FF FF
4410.679395 1     1CE72606x        Rx    d 8 A8 11 04 FF 23 00 00 00
4410.682913 1     0CFFFF8Cx        Rx    d 8 4D FF FF FA FD FF FF FF
4410.683213 1     0CFFFF8Cx        Rx    d 8 99 FF FF FF FF FF FF FF
4410.683516 1     0CFFF88Cx        Rx    d 8 92 FF FF FF FF FF FF FF
4410.684794 1     0DEF0503x        Rx    d 8 01 00 FF FF FF FF FF F5
4410.685266 1     0CFE4947x        Rx    d 8 0F 09 FF FF FF FF FF FF
4410.685562 1     0CFFFE03x        Rx    d 8 8E 84 9F 40 68 1D 7F E5
4410.685862 1     0CFE4307x        Rx    d 8 D0 22 FF FF 51 F3 FF FF
4410.686800 1     0CF00400x        Rx    d 8 F1 FF A0 02 42 FF FF FF
4410.687091 1     18F00128x        Rx    d 8 FF FF FF CF FF FF FF FF
4410.691749 1     18FFFA22x        Rx    d 8 02 41 FA 7D 40 7D FF C0
4410.692029 1     0CFE1122x        Rx    d 8 D4 26 F1 3F FF FF FF FF
4410.692319 1     18FFFF22x        Rx    d 8 58 FF FF FF FF FF FF F5
4410.692601 1     0CFE1522x        Rx    d 8 5C 9E F2 3F FF FF FF FF
4410.692799 2     0CFE43F0x        Rx    d 8 D0 22 FF FF 51 F3 FF FF
4410.692919 1     18EFFFF0x        Rx    d 8 F0 09 FF FF F0 FF FF FF
4410.693368 2     0CFE11F0x        Rx    d 8 D4 26 F1 3F FF FF FF FF
4410.693948 2     0CFFFFF0x        Rx    d 8 55 7D 7D 7D 7D 7D FF FF
4410.694064 1     18FFF819x        Rx    d 8 04 FF FF FF FF FF FF FF
4410.694370 1     18FFF819x        Rx    d 8 05 1A 16 34 00 00 00 00
4410.694646 1     04EF0006x        Rx    d 8 64 15 14 F0 F8 22 D8 21
4410.694724 2     18001E1Ex        Rx    d 8 00 40 00 00 00 00 00 00
4410.694940 1     18FFF819x        Rx    d 8 06 FF FF FF FF FF FF FF
4410.695227 1     08FE6E47x        Rx    d 8 FF FF FF FF 60 08 FF FF
4410.695272 2     1CE61C26x        Rx    d 8 A5 F0 22 F1 22 00 FF FF
4410.695515 1     0CFFFE91x        Rx    d 8 83 FC FF FF CC FF FF FF
4410.695801 1     18EFFF06x        Rx    d 8 F0 0D FF FF 0F FF FF FF
4410.696085 1     0CFFFF31x        Rx    d 8 5C F1 FF 00 00 00 FF FC
4410.696383 1     18FFF819x        Rx    d 8 07 FF FF FF FF FF FF FF
4410.696440 2     1CE7261Cx        Rx    d 8 A5 F0 22 7D 23 7A 7F FF
4410.696665 1     0CFFFF31x        Rx    d 8 5E 0D FC 3F FF 4F F0 FF
4410.696956 1     0CF00300x        Rx    d 8 FF FE 2C FF FF FF FF FF
4410.697242 1     0CEFFF00x        Rx    d 8 64 06 47 7F FF FF FF FF
4410.697528 1     0CF00400x        Rx    d 8 F1 FF A0 08 42 FF FF FF
4410.697806 1     0CFFFE05x        Rx    d 8 8B 84 FF F1 B0 04 41 3C
4410.698094 1     18EF0600x        Rx    d 8 64 0E 52 00 FF FF FF FF
4410.698387 1     0CEFFF05x        Rx    d 8 6E FF FF 00 FF FF FF FF
4410.698683 1     18FFF819x        Rx    d 8 08 FF FF FF FF FF FF FF
4410.698963 1     1CE63126x        Rx    d 8 A8 EA 03 00 00 00 00 00
4410.699245 1     18FFFA19x        Rx    d 8 01 0C 4A 66 07 F7 F4 FF
4410.699529 1     1CE60626x        Rx    d 8 A8 11 04 00 23 00 00 00
4410.699814 1     1CECFF19x        Rx    d 8 20 0A 00 02 FF CA FE 00
4410.702489 2     0CFE15F0x        Rx    d 8 5C 9E F2 3F FF FF FF FF
4410.703014 1     0CFFFE8Cx        Rx    d 8 63 FF FF FD FF FF FF FF
4410.703308 1     0CFFFF8Cx        Rx    d 8 55 7D 7D 7D 7D 7D FF FF
4410.703608 1     0CFFFF8Cx        Rx    d 8 97 FF FF FF FF FF FF FF
4410.705456 1     0CFFFE03x        Rx    d 8 8E 84 9F 40 68 1D 7F E4
4410.705742 1     18FFFA07x        Rx    d 8 02 77 34 3B FF FF FF FF
4410.706796 1     0CF00400x        Rx    d 8 F1 FF A1 F8 41 FF FF FF
4410.707081 1     18F02300x        Rx    d 8 4A 0D F2 FF FF 72 FF FF
4410.707237 2     1CE61C26x        Rx    d 8 A5 F0 22 7D 23 00 FF FF
4410.709057 2     0CFEF31Cx        Rx    d 8 6B CF 31 96 06 B3 52 45
4410.709509 2     14EF801Cx        Rx    d 5 3F 11 E4 8F 64 FF FF FF
4410.710065 2     0CFEE61Cx        Rx    d 8 B9 00 16 05 24 20 FF F9
4410.710682 2     0CFEE81Cx        Rx    d 8 BB 5A 61 08 B2 63 01 58
4410.711282 2     0CFFFF1Cx        Rx    d 8 51 03 02 12 0B 07 08 01
4410.711850 2     0CFFFF1Cx        Rx    d 8 52 25 14 A5 28 8F 25 1A
4410.712426 2     0CFFFF1Cx        Rx    d 8 53 01 91 7A 04 55 41 54
4410.712499 1     0CFEE8F0x        Rx    d 8 BB 5A 61 08 B2 63 01 58
4410.712933 1     0CFFFB37x        Rx    d 8 F1 0F CF FC FF FF FF FF
4410.712994 2     0CF004F0x        Rx    d 8 F1 FF A1 F8 41 FF FF FF
4410.713579 2     0CFFFF1Cx        Rx    d 8 A0 04 FF FF FF FF FF FF
4410.714163 2     18FFFAF0x        Rx    d 8 02 40 00 40 40 3F FF FF
4410.714540 1     04EF0006x        Rx    d 8 64 15 15 F0 E2 22 D8 21
4410.714711 2     0CFFFF1Cx        Rx    d 8 54 2F 01 0A A2 EA 7D 4D
4410.715122 1     18FFFB06x        Rx    d 8 00 05 9E C8 FF FF FF FF
4410.715315 2     0CFFFF1Cx        Rx    d 8 E3 FF FF FF FC 01 FF F1
4410.715400 1     0CFFFE05x        Rx    d 8 8B 84 FF F1 B0 04 41 3D
4410.715686 1     08FE6E47x        Rx    d 8 FF FF FF FF 60 08 FF FF
4410.715895 2     18FFFBF0x        Rx    d 8 00 05 9E C8 FF FF FF FF
4410.715978 1     0CEFFF05x        Rx    d 8 6E FF FF 00 FF FF FF FF
4410.716262 1     18FFF347x        Rx    d 8 23 3D 69 FF FF FF FF FF
4410.716447 2     0CFFFF1Cx        Rx    d 8 E1 E0 01 64 8F 64 46 00
4410.716556 1     18FFFE05x        Rx    d 8 10 FF FF FF FF FF FF FF
4410.716840 1     18FEF147x        Rx    d 8 FF 60 08 FF FF FF FF FF
4410.717027 2     0CCBFFF7x        Rx    d 8 FE FF FF FF 01 00 00 00
4410.717128 1     0CEFFF00x        Rx    d 8 64 06 4B 7F FF FF FF FF
4410.717419 1     0CF00300x        Rx    d 8 FF FE 2D FF FF FF FF FF
4410.717707 1     0CF00400x        Rx    d 8 F1 FF A1 FE 41 FF FF FF
4410.717983 1     18EFFF00x        Rx    d 8 64 10 0F 0F 2A 28 4F 3E
4410.718281 1     18FFF805x        Rx    d 8 20 FF FF FF FF FF FF FF
4410.722406 1     0CFFFFF0x        Rx    d 8 E1 E0 01 64 8F 64 46 00
4410.722924 1     0CFFFE8Cx        Rx    d 8 63 FF FF FC FF FF FF FF
4410.723224 1     0CFFFF8Cx        Rx    d 8 99 FF FF FF FF FF FF FF
4410.723526 1     0CFFF88Cx        Rx    d 8 92 FF FF FF FF FF FF FF
4410.725192 1     18FEF803x        Rx    d 8 FF FF FF 79 E0 29 FF FF
4410.725474 1     0CFFFE03x        Rx    d 8 8E 84 9F 40 70 1D 7F E5
4410.725604 2     0CFFFA23x        Rx    d 8 00 07 AB FF FF FF FF FF
4410.725765 1     18EFFF07x        Rx    d 8 F0 0D FF FF FF FF FF FF
4410.726172 2     18FEF8F0x        Rx    d 8 FF FF FF 79 E0 29 FF FF
4410.726849 1     0CF00400x        Rx    d 8 F1 FF A1 0C 42 FF FF FF
4410.727217 1     18FFF328x        Rx    d 8 21 28 FF FF FF FF FF FF
4410.728519 1     1CFFFE28x        Rx    d 8 A7 50 14 00 F0 41 00 00
4410.728992 2     0CFFFF2Ax        Rx    d 8 77 15 10 B7 7B 45 90 FF
4410.730917 1     0CACFF13x        Rx    d 8 83 7D 10 FF FF FF FF FF
4410.731203 1     18FFFA13x        Rx    d 8 02 62 FF FF FF FF 01 04
4410.731828 1     0CFE4523x        Rx    d 8 0C 4F 78 FF FF FF FF FF
4410.731908 2     18FFFAF0x        Rx    d 8 02 62 FF FF FF FF 01 04
4410.732114 1     18FFFA23x        Rx    d 8 02 47 F1 7D C0 FF FF F6
4410.732406 1     0CFFFAF0x        Rx    d 8 00 07 AB FF FF FF FF FF
4410.732694 1     0CFFFF23x        Rx    d 8 1B 07 15 00 15 FF FF FF
4410.732970 1     0CFFFFF0x        Rx    d 8 77 15 10 B7 7B 45 90 FF
4410.733008 2     0CACFFF0x        Rx    d 8 83 7D 10 FF FF FF FF FF
4410.733257 1     0CFE1222x        Rx    d 8 7D 7D F0 3F FF FF FF FF
4410.733543 1     18EFFF22x        Rx    d 8 F0 09 FF FF 0F FF FF FF
4410.733584 2     0CFE45F0x        Rx    d 8 0C 4F 78 FF FF FF FF FF
4410.733829 1     0CFE1322x        Rx    d 8 7D 7D F0 3F FF FF FF FF
4410.734115 1     18FE6822x        Rx    d 8 69 FF FA FF FF FF FF FF
4410.734161 2     0CFFFFF0x        Rx    d 8 55 7D 7D 7D 7D 7D FF FF
4410.734399 1     0CFE1422x        Rx    d 8 5A A0 F2 3F FF FF FF FF
4410.734673 1     04EF0006x        Rx    d 8 64 15 16 F0 15 23 D8 21
4410.734725 2     0CFE49F0x        Rx    d 8 0F 09 AC 38 84 01 FF FF
4410.734962 1     18FE8D37x        Rx    d 8 11 01 FF FF FF FF FF FF
4410.735246 1     08FE6E47x        Rx    d 8 FF FF FF FF 62 08 FF FF
4410.735321 2     18001E1Ex        Rx    d 8 00 40 00 00 00 00 00 00
4410.735528 1     0CFFFF31x        Rx    d 8 5E 0D FC 3F FF 4F F0 FF
4410.735816 1     18F00106x        Rx    d 8 FF FF FF FF 00 FF FF FF
4410.735905 2     0CFFFA23x        Rx    d 8 00 06 B3 FF FF FF FF FF
4410.736094 1     0CFFFE05x        Rx    d 8 8B 84 FF F1 B0 04 41 3C
4410.736384 1     18F00503x        Rx    d 8 84 FF FF FF FF FF FF FF
4410.736677 1     0CEFFF05x        Rx    d 8 6E FF FF 00 FF FF FF FF
4410.736967 1     0CF00300x        Rx    d 8 FF FE 2D FF FF FF FF FF
4410.737257 1     0CEFFF00x        Rx    d 8 64 06 5E 7F FF FF FF FF
4410.737545 1     0CF00400x        Rx    d 8 F1 FF A1 FE 41 FF FF FF
4410.737629 2     18FE68F0x        Rx    d 8 69 FF FA FF FF FF FF FF
4410.742296 1     0CFFFAF0x        Rx    d 8 00 06 B3 FF FF FF FF FF
4410.742494 2     18FEAEC5x        Rx    d 8 6F FF FF FF FF FF FC FF
4410.743004 1     18EFFF8Cx        Rx    d 8 F0 0C FF FF 88 8F FF FF
4410.743074 2     0CFE12F0x        Rx    d 8 7D 7D F0 3F FF FF FF FF
4410.743290 1     0CFFFF8Cx        Rx    d 8 55 7D 7D 7D 7D 7D FF FF
4410.743564 1     18EFFF8Bx        Rx    d 8 F4 31 88 88 81 51 78 FF
4410.743662 2     0CFE13F0x        Rx    d 8 7D 7D F0 3F FF FF FF FF
4410.743856 1     0CFFFF8Cx        Rx    d 8 97 FF FF FF FF FF FF FF
4410.744234 2     0CFE14F0x        Rx    d 8 5A A0 F2 3F FF FF FF FF
4410.744756 1     0DEF0603x        Rx    d 8 01 01 FF FF FF FF FF F5
4410.744803 2     18FFF8C5x        Rx    d 8 F3 6B 4C FF FF FF FF FF
4410.745339 2     19EFE1C5x        Rx    d 8 4A 95 8D D6 77 44 C0 00
4410.745387 1     0CFFFE03x        Rx    d 8 8E 84 9F 40 68 1D 7F E4
4410.746781 1     0CF00400x        Rx    d 8 F1 FF A1 0C 42 FF FF FF
4410.752485 1     0CEFFF37x        Rx    d 8 E4 FF FF FF FF FF FF 01
4410.752695 2     0CFE48F0x        Rx    d 8 16 09 DC 42 84 01 05 F5
4410.752769 1     18EFFF37x        Rx    d 8 F0 09 FF FF FF 00 F0 FF
4410.753180 1     1CEBFF19x        Rx    d 8 01 01 FF 0D 06 04 72 48
4410.754566 1     04EF0006x        Rx    d 8 64 15 17 F0 15 23 D8 21
4410.754852 1     18FFF8C6x        Rx    d 8 30 6E 6E FF FF FF FF 10
4410.755138 1     08FE6E47x        Rx    d 8 FF FF FF FF 60 08 FF FF
4410.755432 1     0CFE0A05x        Rx    d 8 FF FF FF FF FF FF FF FF
4410.755730 1     0CF02205x        Rx    d 8 17 09 FF FF FF FF FF 21
4410.756022 1     0CFFFE05x        Rx    d 8 8B 84 FF F1 B0 04 41 3D
4410.756313 1     0DEF0607x        Rx    d 8 01 31 B0 43 FF FF FF F0
4410.756605 1     0CEFFF05x        Rx    d 8 6E FF FF 00 FF FF FF FF
4410.756895 1     0CF00300x        Rx    d 8 FF FE 2D FF FF FF FF FF
4410.757183 1     0CEFFF00x        Rx    d 8 64 06 5B 7F FF FF FF FF
4410.757467 1     0CF00400x        Rx    d 8 F1 FF A1 E6 41 FF FF FF
4410.757752 1     18F02300x        Rx    d 8 4A 0D F2 FF FF 72 FF FF
4410.758032 1     18FEBD00x        Rx    d 8 A7 01 72 21 F6 20 7D 7E
4410.758540 1     1CE72631x        Rx    d 8 A8 EA 03 FF 00 00 00 00
4410.762340 2     18FFFBC5x        Rx    d 8 F6 73 9B 00 FF FF F8 FF
4410.762878 1     0CFFFF8Cx        Rx    d 8 E2 CF FF FF F0 FF FF 4F
4410.762928 2     0CFE0AF0x        Rx    d 8 FF FF FF FF FF FF FF FF
4410.763130 1     18FECA00x        Rx    d 6 00 FF 00 00 00 00 FF FF
4410.763416 1     0CFFFE8Cx        Rx    d 8 8D FB FB 7D C0 FF FF FF
4410.763496 2     0CF022F0x        Rx    d 8 17 09 FF FF FF FF FF 21
4410.763716 1     0CFFFF8Cx        Rx    d 8 99 FF FF FF FF FF FF FF
4410.764007 1     0CFFFE8Cx        Rx    d 8 8C FF 22 FB FB F0 FF 1F
4410.764052 2     18FFFBC5x        Rx    d 8 F6 7B 95 8D F8 00 C7 FF
4410.764309 1     0CFFF88Cx        Rx    d 8 92 FF FF FF FF FF FF FF
4410.764591 1     0CFFFEC6x        Rx    d 8 EA C3 09 FF FF 04 FF FF
4410.764608 2     18FFFBC5x        Rx    d 8 F6 7C DC F1 00 F0 FF FF
4410.765184 2     18FE47C5x        Rx    d 8 FF CC FF FF FF FF FF FF
4410.765237 1     18EFFF47x        Rx    d 8 F0 09 FF FF FF FF FF 00
4410.765519 1     0CFFFE03x        Rx    d 8 8E 84 9F 40 68 1D 7F E5
4410.765803 1     18FFFA07x        Rx    d 8 02 4A F1 02 C0 C0 C0 C0
4410.766813 1     0CF00400x        Rx    d 8 F1 FF A1 08 42 FF FF FF
4410.767104 1     18FEDF00x        Rx    d 8 89 F6 41 FF FF FF FF 05
4410.769374 1     1CE63126x        Rx    d 8 A8 EA 03 00 00 00 00 00
4410.772814 1     18FEF737x        Rx    d 8 FF FF FF FF FF FF 0E 01
4410.773069 2     0CFFFFF0x        Rx    d 8 55 7D 7D 7D 7D 7D FF FF
4410.773110 1     18EFFF37x        Rx    d 8 F1 1D FF 55 FF FF FF FF
4410.773417 1     18FFFAF0x        Rx    d 8 02 40 00 40 40 3F FF FF
4410.774553 2     18FFFB26x        Rx    d 8 00 41 01 07 01 7A F9 FF
4410.774647 1     04EF0006x        Rx    d 8 64 15 18 F0 5D 23 D8 21
4410.775125 1     08FE6E47x        Rx    d 8 FF FF FF FF 60 08 FF FF
4410.775149 2     18001E1Ex        Rx    d 8 00 40 00 00 00 00 00 00
4410.775411 1     0CFFFE06x        Rx    d 8 5C B0 43 B0 43 FF FF FF
4410.775699 1     18EFFF05x        Rx    d 8 F0 0D FF FF F0 0F FF FF
4410.775709 2     18FFFB26x        Rx    d 8 00 41 02 0E 3C 12 59 2A
